#! /home/kishor/vlsi_project/oss-cad-suite-linux-x64-20260105/oss-cad-suite/bin/vvp
:ivl_version "13.0 (devel)" "(s20251012-47-ge5943047d)";
:ivl_delay_selection "TYPICAL";
:vpi_time_precision - 12;
:vpi_module "/home/kishor/vlsi_project/oss-cad-suite-linux-x64-20260105/oss-cad-suite/lib/ivl/system.vpi";
:vpi_module "/home/kishor/vlsi_project/oss-cad-suite-linux-x64-20260105/oss-cad-suite/lib/ivl/vhdl_sys.vpi";
:vpi_module "/home/kishor/vlsi_project/oss-cad-suite-linux-x64-20260105/oss-cad-suite/lib/ivl/vhdl_textio.vpi";
:vpi_module "/home/kishor/vlsi_project/oss-cad-suite-linux-x64-20260105/oss-cad-suite/lib/ivl/v2005_math.vpi";
:vpi_module "/home/kishor/vlsi_project/oss-cad-suite-linux-x64-20260105/oss-cad-suite/lib/ivl/va_math.vpi";
:vpi_module "/home/kishor/vlsi_project/oss-cad-suite-linux-x64-20260105/oss-cad-suite/lib/ivl/v2009.vpi";
S_0x5555737331d0 .scope package, "$unit" "$unit" 2 1;
 .timescale 0 0;
S_0x55557372b430 .scope module, "axi_interconnect_tb" "axi_interconnect_tb" 3 15;
 .timescale -9 -12;
L_0x555573799c30 .functor AND 1, L_0x555573799a50, L_0x555573799af0, C4<1>, C4<1>;
L_0x555573799f70 .functor AND 1, L_0x555573799d90, L_0x555573799e30, C4<1>, C4<1>;
L_0x55557379a0d0 .functor BUFZ 1, v0x555573781420_0, C4<0>, C4<0>, C4<0>;
L_0x55557379a2d0 .functor BUFZ 1, v0x5555737817e0_0, C4<0>, C4<0>, C4<0>;
L_0x55557379a3e0 .functor BUFZ 32, v0x555573781560_0, C4<00000000000000000000000000000000>, C4<00000000000000000000000000000000>, C4<00000000000000000000000000000000>;
L_0x55557379a690 .functor AND 1, L_0x55557379a4f0, L_0x55557379a5f0, C4<1>, C4<1>;
L_0x55557379a9e0 .functor AND 1, L_0x55557379a7e0, L_0x55557379a8f0, C4<1>, C4<1>;
L_0x55557379ab40 .functor BUFZ 1, v0x5555737824b0_0, C4<0>, C4<0>, C4<0>;
L_0x55557379a880 .functor BUFZ 1, v0x555573782930_0, C4<0>, C4<0>, C4<0>;
L_0x55557379aeb0 .functor BUFZ 32, v0x555573782620_0, C4<00000000000000000000000000000000>, C4<00000000000000000000000000000000>, C4<00000000000000000000000000000000>;
v0x55557377cf30_0 .net *"_ivl_11", 0 0, L_0x555573799af0;  1 drivers
v0x55557377d010_0 .net *"_ivl_15", 0 0, L_0x555573799d90;  1 drivers
v0x55557377d0d0_0 .net *"_ivl_17", 0 0, L_0x555573799e30;  1 drivers
v0x55557377d170_0 .net *"_ivl_33", 0 0, L_0x55557379a4f0;  1 drivers
v0x55557377d230_0 .net *"_ivl_35", 0 0, L_0x55557379a5f0;  1 drivers
v0x55557377d340_0 .net *"_ivl_39", 0 0, L_0x55557379a7e0;  1 drivers
v0x55557377d400_0 .net *"_ivl_41", 0 0, L_0x55557379a8f0;  1 drivers
v0x55557377d4c0_0 .net *"_ivl_9", 0 0, L_0x555573799a50;  1 drivers
v0x55557377d580_0 .var "clk", 0 0;
v0x55557377d620_0 .var/i "fail_count", 31 0;
v0x55557377d700_0 .var "m_araddr", 31 0;
v0x55557377d7c0_0 .var "m_arprot", 2 0;
v0x55557377d860_0 .net "m_arready", 0 0, v0x555573771810_0;  1 drivers
v0x55557377d930_0 .var "m_arvalid", 0 0;
v0x55557377da00_0 .var "m_awaddr", 31 0;
v0x55557377dad0_0 .var "m_awprot", 2 0;
v0x55557377dba0_0 .net "m_awready", 0 0, v0x555573771b50_0;  1 drivers
v0x55557377dc70_0 .var "m_awvalid", 0 0;
v0x55557377dd40_0 .var "m_bready", 0 0;
v0x55557377de10_0 .net "m_bresp", 1 0, v0x555573771d90_0;  1 drivers
v0x55557377dee0_0 .net "m_bvalid", 0 0, v0x555573771e70_0;  1 drivers
v0x55557377dfb0_0 .net "m_rdata", 31 0, v0x555573771f30_0;  1 drivers
v0x55557377e080_0 .var "m_rready", 0 0;
v0x55557377e150_0 .net "m_rresp", 1 0, v0x5555737720d0_0;  1 drivers
v0x55557377e220_0 .net "m_rvalid", 0 0, v0x5555737721b0_0;  1 drivers
v0x55557377e2f0_0 .var "m_wdata", 31 0;
v0x55557377e3c0_0 .net "m_wready", 0 0, v0x555573772350_0;  1 drivers
v0x55557377e490_0 .var "m_wstrb", 3 0;
v0x55557377e560_0 .var "m_wvalid", 0 0;
v0x55557377e630_0 .var/i "pass_count", 31 0;
v0x55557377e6d0_0 .var "rd_data", 31 0;
v0x55557377e770_0 .var "resetn", 0 0;
v0x55557377e810_0 .net "s0_araddr", 31 0, v0x555573773200_0;  1 drivers
v0x55557377eaf0_0 .net "s0_arprot", 2 0, v0x5555737732e0_0;  1 drivers
v0x55557377eb90_0 .net "s0_arready", 0 0, L_0x555573798cd0;  1 drivers
v0x55557377ec80_0 .net "s0_arvalid", 0 0, v0x555573773480_0;  1 drivers
v0x55557377ed70_0 .net "s0_awaddr", 31 0, v0x555573773540_0;  1 drivers
v0x55557377ee10_0 .net "s0_awprot", 2 0, v0x555573773620_0;  1 drivers
v0x55557377ef00_0 .net "s0_awready", 0 0, L_0x5555737988b0;  1 drivers
v0x55557377eff0_0 .net "s0_awvalid", 0 0, v0x5555737737c0_0;  1 drivers
v0x55557377f0e0_0 .net "s0_bready", 0 0, v0x555573773880_0;  1 drivers
L_0x7bfd0e64dbe8 .functor BUFT 1, C4<00>, C4<0>, C4<0>, C4<0>;
v0x55557377f1d0_0 .net "s0_bresp", 1 0, L_0x7bfd0e64dbe8;  1 drivers
v0x55557377f2c0_0 .net "s0_bvalid", 0 0, L_0x555573798c60;  1 drivers
v0x55557377f3b0_0 .net "s0_rdata", 31 0, L_0x555573798e30;  1 drivers
v0x55557377f4a0_0 .net "s0_rready", 0 0, v0x555573773bc0_0;  1 drivers
L_0x7bfd0e64dc30 .functor BUFT 1, C4<00>, C4<0>, C4<0>, C4<0>;
v0x55557377f590_0 .net "s0_rresp", 1 0, L_0x7bfd0e64dc30;  1 drivers
v0x55557377f680_0 .net "s0_rvalid", 0 0, L_0x555573798d70;  1 drivers
v0x55557377f770_0 .net "s0_wdata", 31 0, v0x555573773e20_0;  1 drivers
v0x55557377f860_0 .net "s0_wready", 0 0, L_0x555573798b50;  1 drivers
v0x55557377f950_0 .net "s0_wstrb", 3 0, v0x555573773fc0_0;  1 drivers
v0x55557377fa40_0 .net "s0_wvalid", 0 0, v0x5555737740a0_0;  1 drivers
v0x55557377fb30_0 .net "s1_araddr", 31 0, v0x555573774160_0;  1 drivers
v0x55557377fbf0_0 .net "s1_arprot", 2 0, v0x555573774240_0;  1 drivers
v0x55557377fce0_0 .net "s1_arready", 0 0, L_0x555573799640;  1 drivers
v0x55557377fdd0_0 .net "s1_arvalid", 0 0, v0x5555737743e0_0;  1 drivers
v0x55557377fec0_0 .net "s1_awaddr", 31 0, v0x5555737744a0_0;  1 drivers
v0x55557377ff80_0 .net "s1_awprot", 2 0, v0x555573774580_0;  1 drivers
v0x555573780070_0 .net "s1_awready", 0 0, L_0x5555737991c0;  1 drivers
v0x555573780160_0 .net "s1_awvalid", 0 0, v0x555573774720_0;  1 drivers
v0x555573780250_0 .net "s1_bready", 0 0, v0x5555737747e0_0;  1 drivers
L_0x7bfd0e64dc78 .functor BUFT 1, C4<00>, C4<0>, C4<0>, C4<0>;
v0x555573780340_0 .net "s1_bresp", 1 0, L_0x7bfd0e64dc78;  1 drivers
v0x555573780430_0 .net "s1_bvalid", 0 0, L_0x5555737995d0;  1 drivers
v0x555573780520_0 .net "s1_rdata", 31 0, L_0x5555737997d0;  1 drivers
v0x555573780610_0 .net "s1_rready", 0 0, v0x555573774b20_0;  1 drivers
L_0x7bfd0e64dcc0 .functor BUFT 1, C4<00>, C4<0>, C4<0>, C4<0>;
v0x555573780700_0 .net "s1_rresp", 1 0, L_0x7bfd0e64dcc0;  1 drivers
v0x5555737807f0_0 .net "s1_rvalid", 0 0, L_0x5555737996e0;  1 drivers
v0x5555737808e0_0 .net "s1_wdata", 31 0, v0x555573774d80_0;  1 drivers
v0x5555737809d0_0 .net "s1_wready", 0 0, L_0x5555737994c0;  1 drivers
v0x555573780ac0_0 .net "s1_wstrb", 3 0, v0x555573774f20_0;  1 drivers
v0x555573780bb0_0 .net "s1_wvalid", 0 0, v0x555573775000_0;  1 drivers
v0x555573780ca0_0 .net "s2_araddr", 31 0, v0x5555737750c0_0;  1 drivers
v0x555573780d40_0 .net "s2_arprot", 2 0, v0x5555737751a0_0;  1 drivers
v0x555573780de0_0 .net "s2_arready", 0 0, L_0x55557379a1e0;  1 drivers
v0x555573780e80_0 .net "s2_arvalid", 0 0, v0x555573775340_0;  1 drivers
v0x555573780f20_0 .var "s2_aw_done", 0 0;
v0x555573780fc0_0 .net "s2_awaddr", 31 0, v0x555573775400_0;  1 drivers
v0x555573781060_0 .net "s2_awprot", 2 0, v0x5555737754e0_0;  1 drivers
v0x555573781100_0 .net "s2_awready", 0 0, L_0x555573799c30;  1 drivers
v0x5555737811a0_0 .net "s2_awvalid", 0 0, v0x555573775680_0;  1 drivers
v0x555573781240_0 .net "s2_bready", 0 0, v0x555573775740_0;  1 drivers
L_0x7bfd0e64dd08 .functor BUFT 1, C4<00>, C4<0>, C4<0>, C4<0>;
v0x5555737812e0_0 .net "s2_bresp", 1 0, L_0x7bfd0e64dd08;  1 drivers
v0x555573781380_0 .net "s2_bvalid", 0 0, L_0x55557379a0d0;  1 drivers
v0x555573781420_0 .var "s2_bvalid_r", 0 0;
v0x5555737814c0_0 .net "s2_rdata", 31 0, L_0x55557379a3e0;  1 drivers
v0x555573781560_0 .var "s2_rdata_r", 31 0;
v0x555573781600_0 .net "s2_rready", 0 0, v0x555573775a80_0;  1 drivers
L_0x7bfd0e64dd50 .functor BUFT 1, C4<00>, C4<0>, C4<0>, C4<0>;
v0x5555737816a0_0 .net "s2_rresp", 1 0, L_0x7bfd0e64dd50;  1 drivers
v0x555573781740_0 .net "s2_rvalid", 0 0, L_0x55557379a2d0;  1 drivers
v0x5555737817e0_0 .var "s2_rvalid_r", 0 0;
v0x555573781880_0 .var "s2_stored_data", 31 0;
v0x555573781920_0 .var "s2_w_done", 0 0;
v0x5555737819c0_0 .net "s2_wdata", 31 0, v0x555573775ce0_0;  1 drivers
v0x555573781a60_0 .net "s2_wready", 0 0, L_0x555573799f70;  1 drivers
v0x555573781b00_0 .net "s2_wstrb", 3 0, v0x555573775e80_0;  1 drivers
v0x555573781ba0_0 .net "s2_wvalid", 0 0, v0x555573775f60_0;  1 drivers
v0x555573781c40_0 .net "s3_araddr", 31 0, v0x555573776020_0;  1 drivers
v0x555573781ce0_0 .net "s3_arprot", 2 0, v0x555573776100_0;  1 drivers
v0x555573781d80_0 .net "s3_arready", 0 0, L_0x55557379aca0;  1 drivers
v0x555573781e20_0 .net "s3_arvalid", 0 0, v0x5555737762a0_0;  1 drivers
v0x555573781ec0_0 .var "s3_aw_done", 0 0;
v0x555573781f60_0 .net "s3_awaddr", 31 0, v0x555573776360_0;  1 drivers
v0x555573782000_0 .net "s3_awprot", 2 0, v0x555573776440_0;  1 drivers
v0x5555737820a0_0 .net "s3_awready", 0 0, L_0x55557379a690;  1 drivers
v0x555573782170_0 .net "s3_awvalid", 0 0, v0x5555737765e0_0;  1 drivers
v0x555573782240_0 .net "s3_bready", 0 0, v0x5555737766a0_0;  1 drivers
L_0x7bfd0e64dd98 .functor BUFT 1, C4<00>, C4<0>, C4<0>, C4<0>;
v0x555573782310_0 .net "s3_bresp", 1 0, L_0x7bfd0e64dd98;  1 drivers
v0x5555737823e0_0 .net "s3_bvalid", 0 0, L_0x55557379ab40;  1 drivers
v0x5555737824b0_0 .var "s3_bvalid_r", 0 0;
v0x555573782550_0 .net "s3_rdata", 31 0, L_0x55557379aeb0;  1 drivers
v0x555573782620_0 .var "s3_rdata_r", 31 0;
v0x5555737826c0_0 .net "s3_rready", 0 0, v0x5555737769e0_0;  1 drivers
L_0x7bfd0e64dde0 .functor BUFT 1, C4<00>, C4<0>, C4<0>, C4<0>;
v0x555573782790_0 .net "s3_rresp", 1 0, L_0x7bfd0e64dde0;  1 drivers
v0x555573782860_0 .net "s3_rvalid", 0 0, L_0x55557379a880;  1 drivers
v0x555573782930_0 .var "s3_rvalid_r", 0 0;
v0x5555737829d0_0 .var "s3_stored_data", 31 0;
v0x555573782a70_0 .var "s3_w_done", 0 0;
v0x555573782b10_0 .net "s3_wdata", 31 0, v0x555573776c40_0;  1 drivers
v0x555573782be0_0 .net "s3_wready", 0 0, L_0x55557379a9e0;  1 drivers
v0x555573782cb0_0 .net "s3_wstrb", 3 0, v0x555573776de0_0;  1 drivers
v0x555573782d80_0 .net "s3_wvalid", 0 0, v0x555573776ec0_0;  1 drivers
L_0x555573798ea0 .part v0x555573773540_0, 0, 16;
L_0x555573798f90 .part v0x555573773200_0, 0, 16;
L_0x555573799840 .part v0x5555737744a0_0, 0, 17;
L_0x555573799930 .part v0x555573774160_0, 0, 17;
L_0x555573799a50 .reduce/nor v0x555573780f20_0;
L_0x555573799af0 .reduce/nor v0x555573781420_0;
L_0x555573799d90 .reduce/nor v0x555573781920_0;
L_0x555573799e30 .reduce/nor v0x555573781420_0;
L_0x55557379a1e0 .reduce/nor v0x5555737817e0_0;
L_0x55557379a4f0 .reduce/nor v0x555573781ec0_0;
L_0x55557379a5f0 .reduce/nor v0x5555737824b0_0;
L_0x55557379a7e0 .reduce/nor v0x555573782a70_0;
L_0x55557379a8f0 .reduce/nor v0x5555737824b0_0;
L_0x55557379aca0 .reduce/nor v0x555573782930_0;
S_0x555573735f90 .scope task, "axi_read" "axi_read" 3 356, 3 356 0, S_0x55557372b430;
 .timescale -9 -12;
v0x555573711b10_0 .var "addr", 31 0;
v0x5555736f1aa0_0 .var "data", 31 0;
E_0x55557369aff0 .event posedge, v0x555573771590_0;
E_0x55557369afb0 .event anyedge, v0x5555737721b0_0;
E_0x55557369af50 .event anyedge, v0x555573771810_0, v0x5555737718d0_0;
TD_axi_interconnect_tb.axi_read ;
    %wait E_0x55557369aff0;
    %pushi/vec4 1, 0, 1;
    %store/vec4 v0x55557377d930_0, 0, 1;
    %load/vec4 v0x555573711b10_0;
    %store/vec4 v0x55557377d700_0, 0, 32;
    %pushi/vec4 0, 0, 3;
    %store/vec4 v0x55557377d7c0_0, 0, 3;
    %pushi/vec4 1, 0, 1;
    %store/vec4 v0x55557377e080_0, 0, 1;
T_0.0 ;
    %load/vec4 v0x55557377d860_0;
    %flag_set/vec4 8;
    %flag_get/vec4 8;
    %jmp/0 T_0.2, 8;
    %load/vec4 v0x55557377d930_0;
    %and;
T_0.2;
    %cmpi/ne 1, 0, 1;
    %jmp/0xz T_0.1, 6;
    %wait E_0x55557369af50;
    %jmp T_0.0;
T_0.1 ;
    %wait E_0x55557369aff0;
    %delay 1000, 0;
    %pushi/vec4 0, 0, 1;
    %store/vec4 v0x55557377d930_0, 0, 1;
T_0.3 ;
    %load/vec4 v0x55557377e220_0;
    %cmpi/ne 1, 0, 1;
    %jmp/0xz T_0.4, 6;
    %wait E_0x55557369afb0;
    %jmp T_0.3;
T_0.4 ;
    %load/vec4 v0x55557377dfb0_0;
    %store/vec4 v0x5555736f1aa0_0, 0, 32;
    %wait E_0x55557369aff0;
    %delay 1000, 0;
    %pushi/vec4 0, 0, 1;
    %store/vec4 v0x55557377e080_0, 0, 1;
    %end;
S_0x55557376a740 .scope task, "axi_write" "axi_write" 3 330, 3 330 0, S_0x55557372b430;
 .timescale -9 -12;
v0x5555736f2a20_0 .var "addr", 31 0;
v0x5555736f32f0_0 .var "data", 31 0;
v0x5555736f39d0_0 .var "strb", 3 0;
E_0x55557361e9e0 .event anyedge, v0x555573771e70_0;
E_0x555573758810 .event anyedge, v0x555573772350_0, v0x5555737724f0_0;
E_0x555573758850 .event anyedge, v0x555573771b50_0, v0x555573771c10_0;
TD_axi_interconnect_tb.axi_write ;
    %wait E_0x55557369aff0;
    %pushi/vec4 1, 0, 1;
    %store/vec4 v0x55557377dc70_0, 0, 1;
    %load/vec4 v0x5555736f2a20_0;
    %store/vec4 v0x55557377da00_0, 0, 32;
    %pushi/vec4 0, 0, 3;
    %store/vec4 v0x55557377dad0_0, 0, 3;
    %pushi/vec4 1, 0, 1;
    %store/vec4 v0x55557377e560_0, 0, 1;
    %load/vec4 v0x5555736f32f0_0;
    %store/vec4 v0x55557377e2f0_0, 0, 32;
    %load/vec4 v0x5555736f39d0_0;
    %store/vec4 v0x55557377e490_0, 0, 4;
    %pushi/vec4 1, 0, 1;
    %store/vec4 v0x55557377dd40_0, 0, 1;
    %fork t_1, S_0x55557376a740;
    %fork t_2, S_0x55557376a740;
    %join;
    %join;
    %jmp t_0;
t_1 ;
T_1.5 ;
    %load/vec4 v0x55557377dba0_0;
    %flag_set/vec4 8;
    %flag_get/vec4 8;
    %jmp/0 T_1.7, 8;
    %load/vec4 v0x55557377dc70_0;
    %and;
T_1.7;
    %cmpi/ne 1, 0, 1;
    %jmp/0xz T_1.6, 6;
    %wait E_0x555573758850;
    %jmp T_1.5;
T_1.6 ;
    %wait E_0x55557369aff0;
    %delay 1000, 0;
    %pushi/vec4 0, 0, 1;
    %store/vec4 v0x55557377dc70_0, 0, 1;
    %end;
t_2 ;
T_1.8 ;
    %load/vec4 v0x55557377e3c0_0;
    %flag_set/vec4 8;
    %flag_get/vec4 8;
    %jmp/0 T_1.10, 8;
    %load/vec4 v0x55557377e560_0;
    %and;
T_1.10;
    %cmpi/ne 1, 0, 1;
    %jmp/0xz T_1.9, 6;
    %wait E_0x555573758810;
    %jmp T_1.8;
T_1.9 ;
    %wait E_0x55557369aff0;
    %delay 1000, 0;
    %pushi/vec4 0, 0, 1;
    %store/vec4 v0x55557377e560_0, 0, 1;
    %end;
    .scope S_0x55557376a740;
t_0 ;
T_1.11 ;
    %load/vec4 v0x55557377dee0_0;
    %cmpi/ne 1, 0, 1;
    %jmp/0xz T_1.12, 6;
    %wait E_0x55557361e9e0;
    %jmp T_1.11;
T_1.12 ;
    %wait E_0x55557369aff0;
    %delay 1000, 0;
    %pushi/vec4 0, 0, 1;
    %store/vec4 v0x55557377dd40_0, 0, 1;
    %end;
S_0x55557376aa10 .scope module, "u_dut" "axi_interconnect" 3 109, 4 13 0, S_0x55557372b430;
 .timescale -9 -12;
    .port_info 0 /INPUT 1 "clk";
    .port_info 1 /INPUT 1 "resetn";
    .port_info 2 /INPUT 1 "m_axi_awvalid";
    .port_info 3 /OUTPUT 1 "m_axi_awready";
    .port_info 4 /INPUT 32 "m_axi_awaddr";
    .port_info 5 /INPUT 3 "m_axi_awprot";
    .port_info 6 /INPUT 1 "m_axi_wvalid";
    .port_info 7 /OUTPUT 1 "m_axi_wready";
    .port_info 8 /INPUT 32 "m_axi_wdata";
    .port_info 9 /INPUT 4 "m_axi_wstrb";
    .port_info 10 /OUTPUT 2 "m_axi_bresp";
    .port_info 11 /OUTPUT 1 "m_axi_bvalid";
    .port_info 12 /INPUT 1 "m_axi_bready";
    .port_info 13 /INPUT 1 "m_axi_arvalid";
    .port_info 14 /OUTPUT 1 "m_axi_arready";
    .port_info 15 /INPUT 32 "m_axi_araddr";
    .port_info 16 /INPUT 3 "m_axi_arprot";
    .port_info 17 /OUTPUT 1 "m_axi_rvalid";
    .port_info 18 /INPUT 1 "m_axi_rready";
    .port_info 19 /OUTPUT 2 "m_axi_rresp";
    .port_info 20 /OUTPUT 32 "m_axi_rdata";
    .port_info 21 /OUTPUT 1 "s0_axi_awvalid";
    .port_info 22 /INPUT 1 "s0_axi_awready";
    .port_info 23 /OUTPUT 32 "s0_axi_awaddr";
    .port_info 24 /OUTPUT 3 "s0_axi_awprot";
    .port_info 25 /OUTPUT 1 "s0_axi_wvalid";
    .port_info 26 /INPUT 1 "s0_axi_wready";
    .port_info 27 /OUTPUT 32 "s0_axi_wdata";
    .port_info 28 /OUTPUT 4 "s0_axi_wstrb";
    .port_info 29 /INPUT 1 "s0_axi_bvalid";
    .port_info 30 /OUTPUT 1 "s0_axi_bready";
    .port_info 31 /INPUT 2 "s0_axi_bresp";
    .port_info 32 /OUTPUT 1 "s0_axi_arvalid";
    .port_info 33 /INPUT 1 "s0_axi_arready";
    .port_info 34 /OUTPUT 32 "s0_axi_araddr";
    .port_info 35 /OUTPUT 3 "s0_axi_arprot";
    .port_info 36 /INPUT 1 "s0_axi_rvalid";
    .port_info 37 /OUTPUT 1 "s0_axi_rready";
    .port_info 38 /INPUT 2 "s0_axi_rresp";
    .port_info 39 /INPUT 32 "s0_axi_rdata";
    .port_info 40 /OUTPUT 1 "s1_axi_awvalid";
    .port_info 41 /INPUT 1 "s1_axi_awready";
    .port_info 42 /OUTPUT 32 "s1_axi_awaddr";
    .port_info 43 /OUTPUT 3 "s1_axi_awprot";
    .port_info 44 /OUTPUT 1 "s1_axi_wvalid";
    .port_info 45 /INPUT 1 "s1_axi_wready";
    .port_info 46 /OUTPUT 32 "s1_axi_wdata";
    .port_info 47 /OUTPUT 4 "s1_axi_wstrb";
    .port_info 48 /INPUT 1 "s1_axi_bvalid";
    .port_info 49 /OUTPUT 1 "s1_axi_bready";
    .port_info 50 /INPUT 2 "s1_axi_bresp";
    .port_info 51 /OUTPUT 1 "s1_axi_arvalid";
    .port_info 52 /INPUT 1 "s1_axi_arready";
    .port_info 53 /OUTPUT 32 "s1_axi_araddr";
    .port_info 54 /OUTPUT 3 "s1_axi_arprot";
    .port_info 55 /INPUT 1 "s1_axi_rvalid";
    .port_info 56 /OUTPUT 1 "s1_axi_rready";
    .port_info 57 /INPUT 2 "s1_axi_rresp";
    .port_info 58 /INPUT 32 "s1_axi_rdata";
    .port_info 59 /OUTPUT 1 "s2_axi_awvalid";
    .port_info 60 /INPUT 1 "s2_axi_awready";
    .port_info 61 /OUTPUT 32 "s2_axi_awaddr";
    .port_info 62 /OUTPUT 3 "s2_axi_awprot";
    .port_info 63 /OUTPUT 1 "s2_axi_wvalid";
    .port_info 64 /INPUT 1 "s2_axi_wready";
    .port_info 65 /OUTPUT 32 "s2_axi_wdata";
    .port_info 66 /OUTPUT 4 "s2_axi_wstrb";
    .port_info 67 /INPUT 1 "s2_axi_bvalid";
    .port_info 68 /OUTPUT 1 "s2_axi_bready";
    .port_info 69 /INPUT 2 "s2_axi_bresp";
    .port_info 70 /OUTPUT 1 "s2_axi_arvalid";
    .port_info 71 /INPUT 1 "s2_axi_arready";
    .port_info 72 /OUTPUT 32 "s2_axi_araddr";
    .port_info 73 /OUTPUT 3 "s2_axi_arprot";
    .port_info 74 /INPUT 1 "s2_axi_rvalid";
    .port_info 75 /OUTPUT 1 "s2_axi_rready";
    .port_info 76 /INPUT 2 "s2_axi_rresp";
    .port_info 77 /INPUT 32 "s2_axi_rdata";
    .port_info 78 /OUTPUT 1 "s3_axi_awvalid";
    .port_info 79 /INPUT 1 "s3_axi_awready";
    .port_info 80 /OUTPUT 32 "s3_axi_awaddr";
    .port_info 81 /OUTPUT 3 "s3_axi_awprot";
    .port_info 82 /OUTPUT 1 "s3_axi_wvalid";
    .port_info 83 /INPUT 1 "s3_axi_wready";
    .port_info 84 /OUTPUT 32 "s3_axi_wdata";
    .port_info 85 /OUTPUT 4 "s3_axi_wstrb";
    .port_info 86 /INPUT 1 "s3_axi_bvalid";
    .port_info 87 /OUTPUT 1 "s3_axi_bready";
    .port_info 88 /INPUT 2 "s3_axi_bresp";
    .port_info 89 /OUTPUT 1 "s3_axi_arvalid";
    .port_info 90 /INPUT 1 "s3_axi_arready";
    .port_info 91 /OUTPUT 32 "s3_axi_araddr";
    .port_info 92 /OUTPUT 3 "s3_axi_arprot";
    .port_info 93 /INPUT 1 "s3_axi_rvalid";
    .port_info 94 /OUTPUT 1 "s3_axi_rready";
    .port_info 95 /INPUT 2 "s3_axi_rresp";
    .port_info 96 /INPUT 32 "s3_axi_rdata";
P_0x55557373b5b0 .param/l "SEL_S0" 1 4 168, C4<00>;
P_0x55557373b5f0 .param/l "SEL_S1" 1 4 169, C4<01>;
P_0x55557373b630 .param/l "SEL_S2" 1 4 170, C4<10>;
P_0x55557373b670 .param/l "SEL_S3" 1 4 171, C4<11>;
enum0x555573623950 .enum4 (2)
   "W_IDLE" 2'b00,
   "W_DATA" 2'b01,
   "W_RESP" 2'b10,
   "W_DECERR" 2'b11
 ;
enum0x555573623f60 .enum4 (2)
   "R_IDLE" 2'b00,
   "R_WAIT" 2'b01,
   "R_DECERR" 2'b10
 ;
L_0x5555736f0d20 .functor AND 1, L_0x555573792ec0, L_0x555573793030, C4<1>, C4<1>;
L_0x55557369b030 .functor AND 1, L_0x5555737931f0, L_0x555573793310, C4<1>, C4<1>;
L_0x55557369aec0 .functor AND 1, L_0x5555737934d0, L_0x5555737935f0, C4<1>, C4<1>;
L_0x55557374c200 .functor AND 1, L_0x5555737937f0, L_0x555573793890, C4<1>, C4<1>;
L_0x555573794060 .functor AND 1, L_0x5555737941c0, L_0x5555737942b0, C4<1>, C4<1>;
L_0x55557374d4f0 .functor AND 1, L_0x5555737944c0, L_0x5555737946c0, C4<1>, C4<1>;
L_0x555573794920 .functor OR 1, L_0x555573794060, L_0x55557374d4f0, C4<0>, C4<0>;
L_0x555573794cb0 .functor AND 1, L_0x555573794a30, L_0x555573794b20, C4<1>, C4<1>;
L_0x555573794e10 .functor OR 1, L_0x555573794920, L_0x555573794cb0, C4<0>, C4<0>;
L_0x5555737951b0 .functor AND 1, L_0x555573794f20, L_0x555573795010, C4<1>, C4<1>;
L_0x555573795320 .functor OR 1, L_0x555573794e10, L_0x5555737951b0, C4<0>, C4<0>;
L_0x555573795720 .functor AND 1, L_0x555573795430, L_0x555573795630, C4<1>, C4<1>;
L_0x555573795b00 .functor AND 1, L_0x5555737958a0, L_0x555573795a10, C4<1>, C4<1>;
L_0x555573795ed0 .functor AND 1, L_0x555573795c10, L_0x555573795de0, C4<1>, C4<1>;
L_0x555573795830 .functor AND 1, L_0x555573796060, L_0x555573796240, C4<1>, C4<1>;
L_0x555573797130 .functor AND 1, L_0x555573796e30, L_0x555573797040, C4<1>, C4<1>;
L_0x5555737975e0 .functor AND 1, L_0x5555737972d0, L_0x5555737974f0, C4<1>, C4<1>;
L_0x5555737976f0 .functor OR 1, L_0x555573797130, L_0x5555737975e0, C4<0>, C4<0>;
L_0x555573797ad0 .functor AND 1, L_0x5555737978a0, L_0x5555737973c0, C4<1>, C4<1>;
L_0x555573797be0 .functor OR 1, L_0x5555737976f0, L_0x555573797ad0, C4<0>, C4<0>;
L_0x555573798240 .functor AND 1, L_0x555573797800, L_0x555573798150, C4<1>, C4<1>;
L_0x555573798350 .functor OR 1, L_0x555573797be0, L_0x555573798240, C4<0>, C4<0>;
L_0x7bfd0e64d018 .functor BUFT 1, C4<00000000000000000000000000000000>, C4<0>, C4<0>, C4<0>;
v0x555573627b70_0 .net/2u *"_ivl_0", 31 0, L_0x7bfd0e64d018;  1 drivers
L_0x7bfd0e64d0a8 .functor BUFT 1, C4<00>, C4<0>, C4<0>, C4<0>;
v0x5555736f0e70_0 .net/2u *"_ivl_10", 1 0, L_0x7bfd0e64d0a8;  1 drivers
v0x55557376bda0_0 .net *"_ivl_101", 0 0, L_0x5555737951b0;  1 drivers
v0x55557376be40_0 .net *"_ivl_103", 0 0, L_0x555573795320;  1 drivers
L_0x7bfd0e64d600 .functor BUFT 1, C4<00000000000000000000000000000000>, C4<0>, C4<0>, C4<0>;
v0x55557376bf00_0 .net/2u *"_ivl_106", 31 0, L_0x7bfd0e64d600;  1 drivers
v0x55557376bfe0_0 .net *"_ivl_108", 0 0, L_0x555573795430;  1 drivers
L_0x7bfd0e64d648 .functor BUFT 1, C4<00000000000000010000000000000000>, C4<0>, C4<0>, C4<0>;
v0x55557376c0a0_0 .net/2u *"_ivl_110", 31 0, L_0x7bfd0e64d648;  1 drivers
v0x55557376c180_0 .net *"_ivl_112", 0 0, L_0x555573795630;  1 drivers
v0x55557376c240_0 .net *"_ivl_115", 0 0, L_0x555573795720;  1 drivers
L_0x7bfd0e64d690 .functor BUFT 1, C4<00>, C4<0>, C4<0>, C4<0>;
v0x55557376c300_0 .net/2u *"_ivl_116", 1 0, L_0x7bfd0e64d690;  1 drivers
L_0x7bfd0e64d6d8 .functor BUFT 1, C4<00000000000000010000000000000000>, C4<0>, C4<0>, C4<0>;
v0x55557376c3e0_0 .net/2u *"_ivl_118", 31 0, L_0x7bfd0e64d6d8;  1 drivers
L_0x7bfd0e64d0f0 .functor BUFT 1, C4<00000000000000010000000000000000>, C4<0>, C4<0>, C4<0>;
v0x55557376c4c0_0 .net/2u *"_ivl_12", 31 0, L_0x7bfd0e64d0f0;  1 drivers
v0x55557376c5a0_0 .net *"_ivl_120", 0 0, L_0x5555737958a0;  1 drivers
L_0x7bfd0e64d720 .functor BUFT 1, C4<00000000000000110000000000000000>, C4<0>, C4<0>, C4<0>;
v0x55557376c660_0 .net/2u *"_ivl_122", 31 0, L_0x7bfd0e64d720;  1 drivers
v0x55557376c740_0 .net *"_ivl_124", 0 0, L_0x555573795a10;  1 drivers
v0x55557376c800_0 .net *"_ivl_127", 0 0, L_0x555573795b00;  1 drivers
L_0x7bfd0e64d768 .functor BUFT 1, C4<01>, C4<0>, C4<0>, C4<0>;
v0x55557376c8c0_0 .net/2u *"_ivl_128", 1 0, L_0x7bfd0e64d768;  1 drivers
L_0x7bfd0e64d7b0 .functor BUFT 1, C4<01000000000000000000000000000000>, C4<0>, C4<0>, C4<0>;
v0x55557376c9a0_0 .net/2u *"_ivl_130", 31 0, L_0x7bfd0e64d7b0;  1 drivers
v0x55557376ca80_0 .net *"_ivl_132", 0 0, L_0x555573795c10;  1 drivers
L_0x7bfd0e64d7f8 .functor BUFT 1, C4<01000001000000000000000000000000>, C4<0>, C4<0>, C4<0>;
v0x55557376cb40_0 .net/2u *"_ivl_134", 31 0, L_0x7bfd0e64d7f8;  1 drivers
v0x55557376cc20_0 .net *"_ivl_136", 0 0, L_0x555573795de0;  1 drivers
v0x55557376cce0_0 .net *"_ivl_139", 0 0, L_0x555573795ed0;  1 drivers
v0x55557376cda0_0 .net *"_ivl_14", 0 0, L_0x5555737931f0;  1 drivers
L_0x7bfd0e64d840 .functor BUFT 1, C4<10>, C4<0>, C4<0>, C4<0>;
v0x55557376ce60_0 .net/2u *"_ivl_140", 1 0, L_0x7bfd0e64d840;  1 drivers
L_0x7bfd0e64d888 .functor BUFT 1, C4<00100000000000000000000000000000>, C4<0>, C4<0>, C4<0>;
v0x55557376cf40_0 .net/2u *"_ivl_142", 31 0, L_0x7bfd0e64d888;  1 drivers
v0x55557376d020_0 .net *"_ivl_144", 0 0, L_0x555573796060;  1 drivers
L_0x7bfd0e64d8d0 .functor BUFT 1, C4<00100000000000010000000000000000>, C4<0>, C4<0>, C4<0>;
v0x55557376d0e0_0 .net/2u *"_ivl_146", 31 0, L_0x7bfd0e64d8d0;  1 drivers
v0x55557376d1c0_0 .net *"_ivl_148", 0 0, L_0x555573796240;  1 drivers
v0x55557376d280_0 .net *"_ivl_151", 0 0, L_0x555573795830;  1 drivers
L_0x7bfd0e64d918 .functor BUFT 1, C4<11>, C4<0>, C4<0>, C4<0>;
v0x55557376d340_0 .net/2u *"_ivl_152", 1 0, L_0x7bfd0e64d918;  1 drivers
L_0x7bfd0e64d960 .functor BUFT 1, C4<00>, C4<0>, C4<0>, C4<0>;
v0x55557376d420_0 .net/2u *"_ivl_154", 1 0, L_0x7bfd0e64d960;  1 drivers
v0x55557376d500_0 .net *"_ivl_156", 1 0, L_0x5555737965e0;  1 drivers
v0x55557376d5e0_0 .net *"_ivl_158", 1 0, L_0x555573796870;  1 drivers
L_0x7bfd0e64d138 .functor BUFT 1, C4<00000000000000110000000000000000>, C4<0>, C4<0>, C4<0>;
v0x55557376d6c0_0 .net/2u *"_ivl_16", 31 0, L_0x7bfd0e64d138;  1 drivers
v0x55557376d7a0_0 .net *"_ivl_160", 1 0, L_0x555573796a00;  1 drivers
L_0x7bfd0e64d9a8 .functor BUFT 1, C4<00000000000000000000000000000000>, C4<0>, C4<0>, C4<0>;
v0x55557376d880_0 .net/2u *"_ivl_164", 31 0, L_0x7bfd0e64d9a8;  1 drivers
v0x55557376d960_0 .net *"_ivl_166", 0 0, L_0x555573796e30;  1 drivers
L_0x7bfd0e64d9f0 .functor BUFT 1, C4<00000000000000010000000000000000>, C4<0>, C4<0>, C4<0>;
v0x55557376da20_0 .net/2u *"_ivl_168", 31 0, L_0x7bfd0e64d9f0;  1 drivers
v0x55557376db00_0 .net *"_ivl_170", 0 0, L_0x555573797040;  1 drivers
v0x55557376dbc0_0 .net *"_ivl_173", 0 0, L_0x555573797130;  1 drivers
L_0x7bfd0e64da38 .functor BUFT 1, C4<00000000000000010000000000000000>, C4<0>, C4<0>, C4<0>;
v0x55557376dc80_0 .net/2u *"_ivl_174", 31 0, L_0x7bfd0e64da38;  1 drivers
v0x55557376dd60_0 .net *"_ivl_176", 0 0, L_0x5555737972d0;  1 drivers
L_0x7bfd0e64da80 .functor BUFT 1, C4<00000000000000110000000000000000>, C4<0>, C4<0>, C4<0>;
v0x55557376de20_0 .net/2u *"_ivl_178", 31 0, L_0x7bfd0e64da80;  1 drivers
v0x55557376df00_0 .net *"_ivl_18", 0 0, L_0x555573793310;  1 drivers
v0x55557376dfc0_0 .net *"_ivl_180", 0 0, L_0x5555737974f0;  1 drivers
v0x55557376e080_0 .net *"_ivl_183", 0 0, L_0x5555737975e0;  1 drivers
v0x55557376e140_0 .net *"_ivl_185", 0 0, L_0x5555737976f0;  1 drivers
L_0x7bfd0e64dac8 .functor BUFT 1, C4<01000000000000000000000000000000>, C4<0>, C4<0>, C4<0>;
v0x55557376e200_0 .net/2u *"_ivl_186", 31 0, L_0x7bfd0e64dac8;  1 drivers
v0x55557376e2e0_0 .net *"_ivl_188", 0 0, L_0x5555737978a0;  1 drivers
L_0x7bfd0e64db10 .functor BUFT 1, C4<01000001000000000000000000000000>, C4<0>, C4<0>, C4<0>;
v0x55557376e3a0_0 .net/2u *"_ivl_190", 31 0, L_0x7bfd0e64db10;  1 drivers
v0x55557376e480_0 .net *"_ivl_192", 0 0, L_0x5555737973c0;  1 drivers
v0x55557376e540_0 .net *"_ivl_195", 0 0, L_0x555573797ad0;  1 drivers
v0x55557376e600_0 .net *"_ivl_197", 0 0, L_0x555573797be0;  1 drivers
L_0x7bfd0e64db58 .functor BUFT 1, C4<00100000000000000000000000000000>, C4<0>, C4<0>, C4<0>;
v0x55557376e6c0_0 .net/2u *"_ivl_198", 31 0, L_0x7bfd0e64db58;  1 drivers
v0x55557376e7a0_0 .net *"_ivl_2", 0 0, L_0x555573792ec0;  1 drivers
v0x55557376e860_0 .net *"_ivl_200", 0 0, L_0x555573797800;  1 drivers
L_0x7bfd0e64dba0 .functor BUFT 1, C4<00100000000000010000000000000000>, C4<0>, C4<0>, C4<0>;
v0x55557376e920_0 .net/2u *"_ivl_202", 31 0, L_0x7bfd0e64dba0;  1 drivers
v0x55557376ea00_0 .net *"_ivl_204", 0 0, L_0x555573798150;  1 drivers
v0x55557376eac0_0 .net *"_ivl_207", 0 0, L_0x555573798240;  1 drivers
v0x55557376eb80_0 .net *"_ivl_209", 0 0, L_0x555573798350;  1 drivers
v0x55557376ec40_0 .net *"_ivl_21", 0 0, L_0x55557369b030;  1 drivers
L_0x7bfd0e64d180 .functor BUFT 1, C4<01>, C4<0>, C4<0>, C4<0>;
v0x55557376ed00_0 .net/2u *"_ivl_22", 1 0, L_0x7bfd0e64d180;  1 drivers
L_0x7bfd0e64d1c8 .functor BUFT 1, C4<01000000000000000000000000000000>, C4<0>, C4<0>, C4<0>;
v0x55557376ede0_0 .net/2u *"_ivl_24", 31 0, L_0x7bfd0e64d1c8;  1 drivers
v0x55557376eec0_0 .net *"_ivl_26", 0 0, L_0x5555737934d0;  1 drivers
L_0x7bfd0e64d210 .functor BUFT 1, C4<01000001000000000000000000000000>, C4<0>, C4<0>, C4<0>;
v0x55557376ef80_0 .net/2u *"_ivl_28", 31 0, L_0x7bfd0e64d210;  1 drivers
v0x55557376f470_0 .net *"_ivl_30", 0 0, L_0x5555737935f0;  1 drivers
v0x55557376f530_0 .net *"_ivl_33", 0 0, L_0x55557369aec0;  1 drivers
L_0x7bfd0e64d258 .functor BUFT 1, C4<10>, C4<0>, C4<0>, C4<0>;
v0x55557376f5f0_0 .net/2u *"_ivl_34", 1 0, L_0x7bfd0e64d258;  1 drivers
L_0x7bfd0e64d2a0 .functor BUFT 1, C4<00100000000000000000000000000000>, C4<0>, C4<0>, C4<0>;
v0x55557376f6d0_0 .net/2u *"_ivl_36", 31 0, L_0x7bfd0e64d2a0;  1 drivers
v0x55557376f7b0_0 .net *"_ivl_38", 0 0, L_0x5555737937f0;  1 drivers
L_0x7bfd0e64d060 .functor BUFT 1, C4<00000000000000010000000000000000>, C4<0>, C4<0>, C4<0>;
v0x55557376f870_0 .net/2u *"_ivl_4", 31 0, L_0x7bfd0e64d060;  1 drivers
L_0x7bfd0e64d2e8 .functor BUFT 1, C4<00100000000000010000000000000000>, C4<0>, C4<0>, C4<0>;
v0x55557376f950_0 .net/2u *"_ivl_40", 31 0, L_0x7bfd0e64d2e8;  1 drivers
v0x55557376fa30_0 .net *"_ivl_42", 0 0, L_0x555573793890;  1 drivers
v0x55557376faf0_0 .net *"_ivl_45", 0 0, L_0x55557374c200;  1 drivers
L_0x7bfd0e64d330 .functor BUFT 1, C4<11>, C4<0>, C4<0>, C4<0>;
v0x55557376fbb0_0 .net/2u *"_ivl_46", 1 0, L_0x7bfd0e64d330;  1 drivers
L_0x7bfd0e64d378 .functor BUFT 1, C4<00>, C4<0>, C4<0>, C4<0>;
v0x55557376fc90_0 .net/2u *"_ivl_48", 1 0, L_0x7bfd0e64d378;  1 drivers
v0x55557376fd70_0 .net *"_ivl_50", 1 0, L_0x555573793ad0;  1 drivers
v0x55557376fe50_0 .net *"_ivl_52", 1 0, L_0x555573793c90;  1 drivers
v0x55557376ff30_0 .net *"_ivl_54", 1 0, L_0x555573793e30;  1 drivers
L_0x7bfd0e64d3c0 .functor BUFT 1, C4<00000000000000000000000000000000>, C4<0>, C4<0>, C4<0>;
v0x555573770010_0 .net/2u *"_ivl_58", 31 0, L_0x7bfd0e64d3c0;  1 drivers
v0x5555737700f0_0 .net *"_ivl_6", 0 0, L_0x555573793030;  1 drivers
v0x5555737701b0_0 .net *"_ivl_60", 0 0, L_0x5555737941c0;  1 drivers
L_0x7bfd0e64d408 .functor BUFT 1, C4<00000000000000010000000000000000>, C4<0>, C4<0>, C4<0>;
v0x555573770270_0 .net/2u *"_ivl_62", 31 0, L_0x7bfd0e64d408;  1 drivers
v0x555573770350_0 .net *"_ivl_64", 0 0, L_0x5555737942b0;  1 drivers
v0x555573770410_0 .net *"_ivl_67", 0 0, L_0x555573794060;  1 drivers
L_0x7bfd0e64d450 .functor BUFT 1, C4<00000000000000010000000000000000>, C4<0>, C4<0>, C4<0>;
v0x5555737704d0_0 .net/2u *"_ivl_68", 31 0, L_0x7bfd0e64d450;  1 drivers
v0x5555737705b0_0 .net *"_ivl_70", 0 0, L_0x5555737944c0;  1 drivers
L_0x7bfd0e64d498 .functor BUFT 1, C4<00000000000000110000000000000000>, C4<0>, C4<0>, C4<0>;
v0x555573770670_0 .net/2u *"_ivl_72", 31 0, L_0x7bfd0e64d498;  1 drivers
v0x555573770750_0 .net *"_ivl_74", 0 0, L_0x5555737946c0;  1 drivers
v0x555573770810_0 .net *"_ivl_77", 0 0, L_0x55557374d4f0;  1 drivers
v0x5555737708d0_0 .net *"_ivl_79", 0 0, L_0x555573794920;  1 drivers
L_0x7bfd0e64d4e0 .functor BUFT 1, C4<01000000000000000000000000000000>, C4<0>, C4<0>, C4<0>;
v0x555573770990_0 .net/2u *"_ivl_80", 31 0, L_0x7bfd0e64d4e0;  1 drivers
v0x555573770a70_0 .net *"_ivl_82", 0 0, L_0x555573794a30;  1 drivers
L_0x7bfd0e64d528 .functor BUFT 1, C4<01000001000000000000000000000000>, C4<0>, C4<0>, C4<0>;
v0x555573770b30_0 .net/2u *"_ivl_84", 31 0, L_0x7bfd0e64d528;  1 drivers
v0x555573770c10_0 .net *"_ivl_86", 0 0, L_0x555573794b20;  1 drivers
v0x555573770cd0_0 .net *"_ivl_89", 0 0, L_0x555573794cb0;  1 drivers
v0x555573770d90_0 .net *"_ivl_9", 0 0, L_0x5555736f0d20;  1 drivers
v0x555573770e50_0 .net *"_ivl_91", 0 0, L_0x555573794e10;  1 drivers
L_0x7bfd0e64d570 .functor BUFT 1, C4<00100000000000000000000000000000>, C4<0>, C4<0>, C4<0>;
v0x555573770f10_0 .net/2u *"_ivl_92", 31 0, L_0x7bfd0e64d570;  1 drivers
v0x555573770ff0_0 .net *"_ivl_94", 0 0, L_0x555573794f20;  1 drivers
L_0x7bfd0e64d5b8 .functor BUFT 1, C4<00100000000000010000000000000000>, C4<0>, C4<0>, C4<0>;
v0x5555737710b0_0 .net/2u *"_ivl_96", 31 0, L_0x7bfd0e64d5b8;  1 drivers
v0x555573771190_0 .net *"_ivl_98", 0 0, L_0x555573795010;  1 drivers
v0x555573771250_0 .net "ar_decerr", 0 0, L_0x555573798520;  1 drivers
v0x555573771310_0 .net "ar_slave_sel", 1 0, L_0x555573796ca0;  1 drivers
v0x5555737713f0_0 .net "aw_decerr", 0 0, L_0x555573794c10;  1 drivers
v0x5555737714b0_0 .net "aw_slave_sel", 1 0, L_0x555573793fc0;  1 drivers
v0x555573771590_0 .net "clk", 0 0, v0x55557377d580_0;  1 drivers
v0x555573771650_0 .net "m_axi_araddr", 31 0, v0x55557377d700_0;  1 drivers
v0x555573771730_0 .net "m_axi_arprot", 2 0, v0x55557377d7c0_0;  1 drivers
v0x555573771810_0 .var "m_axi_arready", 0 0;
v0x5555737718d0_0 .net "m_axi_arvalid", 0 0, v0x55557377d930_0;  1 drivers
v0x555573771990_0 .net "m_axi_awaddr", 31 0, v0x55557377da00_0;  1 drivers
v0x555573771a70_0 .net "m_axi_awprot", 2 0, v0x55557377dad0_0;  1 drivers
v0x555573771b50_0 .var "m_axi_awready", 0 0;
v0x555573771c10_0 .net "m_axi_awvalid", 0 0, v0x55557377dc70_0;  1 drivers
v0x555573771cd0_0 .net "m_axi_bready", 0 0, v0x55557377dd40_0;  1 drivers
v0x555573771d90_0 .var "m_axi_bresp", 1 0;
v0x555573771e70_0 .var "m_axi_bvalid", 0 0;
v0x555573771f30_0 .var "m_axi_rdata", 31 0;
v0x555573772010_0 .net "m_axi_rready", 0 0, v0x55557377e080_0;  1 drivers
v0x5555737720d0_0 .var "m_axi_rresp", 1 0;
v0x5555737721b0_0 .var "m_axi_rvalid", 0 0;
v0x555573772270_0 .net "m_axi_wdata", 31 0, v0x55557377e2f0_0;  1 drivers
v0x555573772350_0 .var "m_axi_wready", 0 0;
v0x555573772410_0 .net "m_axi_wstrb", 3 0, v0x55557377e490_0;  1 drivers
v0x5555737724f0_0 .net "m_axi_wvalid", 0 0, v0x55557377e560_0;  1 drivers
v0x5555737725b0_0 .var "r_addr_reg", 31 0;
v0x555573772690_0 .var "r_prot_reg", 2 0;
v0x555573772770_0 .var "r_slave_reg", 1 0;
v0x555573773060_0 .var "r_state", 1 0;
v0x555573773140_0 .net "resetn", 0 0, v0x55557377e770_0;  1 drivers
v0x555573773200_0 .var "s0_axi_araddr", 31 0;
v0x5555737732e0_0 .var "s0_axi_arprot", 2 0;
v0x5555737733c0_0 .net "s0_axi_arready", 0 0, L_0x555573798cd0;  alias, 1 drivers
v0x555573773480_0 .var "s0_axi_arvalid", 0 0;
v0x555573773540_0 .var "s0_axi_awaddr", 31 0;
v0x555573773620_0 .var "s0_axi_awprot", 2 0;
v0x555573773700_0 .net "s0_axi_awready", 0 0, L_0x5555737988b0;  alias, 1 drivers
v0x5555737737c0_0 .var "s0_axi_awvalid", 0 0;
v0x555573773880_0 .var "s0_axi_bready", 0 0;
v0x555573773940_0 .net "s0_axi_bresp", 1 0, L_0x7bfd0e64dbe8;  alias, 1 drivers
v0x555573773a20_0 .net "s0_axi_bvalid", 0 0, L_0x555573798c60;  alias, 1 drivers
v0x555573773ae0_0 .net "s0_axi_rdata", 31 0, L_0x555573798e30;  alias, 1 drivers
v0x555573773bc0_0 .var "s0_axi_rready", 0 0;
v0x555573773c80_0 .net "s0_axi_rresp", 1 0, L_0x7bfd0e64dc30;  alias, 1 drivers
v0x555573773d60_0 .net "s0_axi_rvalid", 0 0, L_0x555573798d70;  alias, 1 drivers
v0x555573773e20_0 .var "s0_axi_wdata", 31 0;
v0x555573773f00_0 .net "s0_axi_wready", 0 0, L_0x555573798b50;  alias, 1 drivers
v0x555573773fc0_0 .var "s0_axi_wstrb", 3 0;
v0x5555737740a0_0 .var "s0_axi_wvalid", 0 0;
v0x555573774160_0 .var "s1_axi_araddr", 31 0;
v0x555573774240_0 .var "s1_axi_arprot", 2 0;
v0x555573774320_0 .net "s1_axi_arready", 0 0, L_0x555573799640;  alias, 1 drivers
v0x5555737743e0_0 .var "s1_axi_arvalid", 0 0;
v0x5555737744a0_0 .var "s1_axi_awaddr", 31 0;
v0x555573774580_0 .var "s1_axi_awprot", 2 0;
v0x555573774660_0 .net "s1_axi_awready", 0 0, L_0x5555737991c0;  alias, 1 drivers
v0x555573774720_0 .var "s1_axi_awvalid", 0 0;
v0x5555737747e0_0 .var "s1_axi_bready", 0 0;
v0x5555737748a0_0 .net "s1_axi_bresp", 1 0, L_0x7bfd0e64dc78;  alias, 1 drivers
v0x555573774980_0 .net "s1_axi_bvalid", 0 0, L_0x5555737995d0;  alias, 1 drivers
v0x555573774a40_0 .net "s1_axi_rdata", 31 0, L_0x5555737997d0;  alias, 1 drivers
v0x555573774b20_0 .var "s1_axi_rready", 0 0;
v0x555573774be0_0 .net "s1_axi_rresp", 1 0, L_0x7bfd0e64dcc0;  alias, 1 drivers
v0x555573774cc0_0 .net "s1_axi_rvalid", 0 0, L_0x5555737996e0;  alias, 1 drivers
v0x555573774d80_0 .var "s1_axi_wdata", 31 0;
v0x555573774e60_0 .net "s1_axi_wready", 0 0, L_0x5555737994c0;  alias, 1 drivers
v0x555573774f20_0 .var "s1_axi_wstrb", 3 0;
v0x555573775000_0 .var "s1_axi_wvalid", 0 0;
v0x5555737750c0_0 .var "s2_axi_araddr", 31 0;
v0x5555737751a0_0 .var "s2_axi_arprot", 2 0;
v0x555573775280_0 .net "s2_axi_arready", 0 0, L_0x55557379a1e0;  alias, 1 drivers
v0x555573775340_0 .var "s2_axi_arvalid", 0 0;
v0x555573775400_0 .var "s2_axi_awaddr", 31 0;
v0x5555737754e0_0 .var "s2_axi_awprot", 2 0;
v0x5555737755c0_0 .net "s2_axi_awready", 0 0, L_0x555573799c30;  alias, 1 drivers
v0x555573775680_0 .var "s2_axi_awvalid", 0 0;
v0x555573775740_0 .var "s2_axi_bready", 0 0;
v0x555573775800_0 .net "s2_axi_bresp", 1 0, L_0x7bfd0e64dd08;  alias, 1 drivers
v0x5555737758e0_0 .net "s2_axi_bvalid", 0 0, L_0x55557379a0d0;  alias, 1 drivers
v0x5555737759a0_0 .net "s2_axi_rdata", 31 0, L_0x55557379a3e0;  alias, 1 drivers
v0x555573775a80_0 .var "s2_axi_rready", 0 0;
v0x555573775b40_0 .net "s2_axi_rresp", 1 0, L_0x7bfd0e64dd50;  alias, 1 drivers
v0x555573775c20_0 .net "s2_axi_rvalid", 0 0, L_0x55557379a2d0;  alias, 1 drivers
v0x555573775ce0_0 .var "s2_axi_wdata", 31 0;
v0x555573775dc0_0 .net "s2_axi_wready", 0 0, L_0x555573799f70;  alias, 1 drivers
v0x555573775e80_0 .var "s2_axi_wstrb", 3 0;
v0x555573775f60_0 .var "s2_axi_wvalid", 0 0;
v0x555573776020_0 .var "s3_axi_araddr", 31 0;
v0x555573776100_0 .var "s3_axi_arprot", 2 0;
v0x5555737761e0_0 .net "s3_axi_arready", 0 0, L_0x55557379aca0;  alias, 1 drivers
v0x5555737762a0_0 .var "s3_axi_arvalid", 0 0;
v0x555573776360_0 .var "s3_axi_awaddr", 31 0;
v0x555573776440_0 .var "s3_axi_awprot", 2 0;
v0x555573776520_0 .net "s3_axi_awready", 0 0, L_0x55557379a690;  alias, 1 drivers
v0x5555737765e0_0 .var "s3_axi_awvalid", 0 0;
v0x5555737766a0_0 .var "s3_axi_bready", 0 0;
v0x555573776760_0 .net "s3_axi_bresp", 1 0, L_0x7bfd0e64dd98;  alias, 1 drivers
v0x555573776840_0 .net "s3_axi_bvalid", 0 0, L_0x55557379ab40;  alias, 1 drivers
v0x555573776900_0 .net "s3_axi_rdata", 31 0, L_0x55557379aeb0;  alias, 1 drivers
v0x5555737769e0_0 .var "s3_axi_rready", 0 0;
v0x555573776aa0_0 .net "s3_axi_rresp", 1 0, L_0x7bfd0e64dde0;  alias, 1 drivers
v0x555573776b80_0 .net "s3_axi_rvalid", 0 0, L_0x55557379a880;  alias, 1 drivers
v0x555573776c40_0 .var "s3_axi_wdata", 31 0;
v0x555573776d20_0 .net "s3_axi_wready", 0 0, L_0x55557379a9e0;  alias, 1 drivers
v0x555573776de0_0 .var "s3_axi_wstrb", 3 0;
v0x555573776ec0_0 .var "s3_axi_wvalid", 0 0;
v0x555573776f80_0 .var "w_addr_reg", 31 0;
v0x555573777060_0 .var "w_prot_reg", 2 0;
v0x555573777140_0 .var "w_slave_reg", 1 0;
v0x555573777220_0 .var "w_state", 1 0;
E_0x55557376b990/0 .event anyedge, v0x555573773060_0, v0x555573772770_0, v0x555573773ae0_0, v0x555573773c80_0;
E_0x55557376b990/1 .event anyedge, v0x555573773d60_0, v0x555573772010_0, v0x555573774a40_0, v0x555573774be0_0;
E_0x55557376b990/2 .event anyedge, v0x555573774cc0_0, v0x5555737759a0_0, v0x555573775b40_0, v0x555573775c20_0;
E_0x55557376b990/3 .event anyedge, v0x555573776900_0, v0x555573776aa0_0, v0x555573776b80_0;
E_0x55557376b990 .event/or E_0x55557376b990/0, E_0x55557376b990/1, E_0x55557376b990/2, E_0x55557376b990/3;
E_0x55557376ba50/0 .event anyedge, v0x555573773060_0, v0x5555737718d0_0, v0x555573771250_0, v0x555573771310_0;
E_0x55557376ba50/1 .event anyedge, v0x555573771650_0, v0x555573771730_0, v0x5555737733c0_0, v0x555573774320_0;
E_0x55557376ba50/2 .event anyedge, v0x555573775280_0, v0x5555737761e0_0, v0x555573772770_0, v0x555573772690_0;
E_0x55557376ba50 .event/or E_0x55557376ba50/0, E_0x55557376ba50/1, E_0x55557376ba50/2;
E_0x55557376bb00/0 .event anyedge, v0x555573777220_0, v0x555573777140_0, v0x555573773a20_0, v0x555573773940_0;
E_0x55557376bb00/1 .event anyedge, v0x555573771cd0_0, v0x555573774980_0, v0x5555737748a0_0, v0x5555737758e0_0;
E_0x55557376bb00/2 .event anyedge, v0x555573775800_0, v0x555573776840_0, v0x555573776760_0;
E_0x55557376bb00 .event/or E_0x55557376bb00/0, E_0x55557376bb00/1, E_0x55557376bb00/2;
E_0x55557376bba0/0 .event anyedge, v0x555573777220_0, v0x555573777140_0, v0x5555737724f0_0, v0x555573772270_0;
E_0x55557376bba0/1 .event anyedge, v0x555573772410_0, v0x555573773f00_0, v0x555573774e60_0, v0x555573775dc0_0;
E_0x55557376bba0/2 .event anyedge, v0x555573776d20_0;
E_0x55557376bba0 .event/or E_0x55557376bba0/0, E_0x55557376bba0/1, E_0x55557376bba0/2;
E_0x55557376bc60/0 .event anyedge, v0x555573777220_0, v0x555573771c10_0, v0x5555737713f0_0, v0x5555737714b0_0;
E_0x55557376bc60/1 .event anyedge, v0x555573771990_0, v0x555573771a70_0, v0x555573773700_0, v0x555573774660_0;
E_0x55557376bc60/2 .event anyedge, v0x5555737755c0_0, v0x555573776520_0;
E_0x55557376bc60 .event/or E_0x55557376bc60/0, E_0x55557376bc60/1, E_0x55557376bc60/2;
L_0x555573792ec0 .cmp/ge 32, v0x55557377da00_0, L_0x7bfd0e64d018;
L_0x555573793030 .cmp/gt 32, L_0x7bfd0e64d060, v0x55557377da00_0;
L_0x5555737931f0 .cmp/ge 32, v0x55557377da00_0, L_0x7bfd0e64d0f0;
L_0x555573793310 .cmp/gt 32, L_0x7bfd0e64d138, v0x55557377da00_0;
L_0x5555737934d0 .cmp/ge 32, v0x55557377da00_0, L_0x7bfd0e64d1c8;
L_0x5555737935f0 .cmp/gt 32, L_0x7bfd0e64d210, v0x55557377da00_0;
L_0x5555737937f0 .cmp/ge 32, v0x55557377da00_0, L_0x7bfd0e64d2a0;
L_0x555573793890 .cmp/gt 32, L_0x7bfd0e64d2e8, v0x55557377da00_0;
L_0x555573793ad0 .functor MUXZ 2, L_0x7bfd0e64d378, L_0x7bfd0e64d330, L_0x55557374c200, C4<>;
L_0x555573793c90 .functor MUXZ 2, L_0x555573793ad0, L_0x7bfd0e64d258, L_0x55557369aec0, C4<>;
L_0x555573793e30 .functor MUXZ 2, L_0x555573793c90, L_0x7bfd0e64d180, L_0x55557369b030, C4<>;
L_0x555573793fc0 .functor MUXZ 2, L_0x555573793e30, L_0x7bfd0e64d0a8, L_0x5555736f0d20, C4<>;
L_0x5555737941c0 .cmp/ge 32, v0x55557377da00_0, L_0x7bfd0e64d3c0;
L_0x5555737942b0 .cmp/gt 32, L_0x7bfd0e64d408, v0x55557377da00_0;
L_0x5555737944c0 .cmp/ge 32, v0x55557377da00_0, L_0x7bfd0e64d450;
L_0x5555737946c0 .cmp/gt 32, L_0x7bfd0e64d498, v0x55557377da00_0;
L_0x555573794a30 .cmp/ge 32, v0x55557377da00_0, L_0x7bfd0e64d4e0;
L_0x555573794b20 .cmp/gt 32, L_0x7bfd0e64d528, v0x55557377da00_0;
L_0x555573794f20 .cmp/ge 32, v0x55557377da00_0, L_0x7bfd0e64d570;
L_0x555573795010 .cmp/gt 32, L_0x7bfd0e64d5b8, v0x55557377da00_0;
L_0x555573794c10 .reduce/nor L_0x555573795320;
L_0x555573795430 .cmp/ge 32, v0x55557377d700_0, L_0x7bfd0e64d600;
L_0x555573795630 .cmp/gt 32, L_0x7bfd0e64d648, v0x55557377d700_0;
L_0x5555737958a0 .cmp/ge 32, v0x55557377d700_0, L_0x7bfd0e64d6d8;
L_0x555573795a10 .cmp/gt 32, L_0x7bfd0e64d720, v0x55557377d700_0;
L_0x555573795c10 .cmp/ge 32, v0x55557377d700_0, L_0x7bfd0e64d7b0;
L_0x555573795de0 .cmp/gt 32, L_0x7bfd0e64d7f8, v0x55557377d700_0;
L_0x555573796060 .cmp/ge 32, v0x55557377d700_0, L_0x7bfd0e64d888;
L_0x555573796240 .cmp/gt 32, L_0x7bfd0e64d8d0, v0x55557377d700_0;
L_0x5555737965e0 .functor MUXZ 2, L_0x7bfd0e64d960, L_0x7bfd0e64d918, L_0x555573795830, C4<>;
L_0x555573796870 .functor MUXZ 2, L_0x5555737965e0, L_0x7bfd0e64d840, L_0x555573795ed0, C4<>;
L_0x555573796a00 .functor MUXZ 2, L_0x555573796870, L_0x7bfd0e64d768, L_0x555573795b00, C4<>;
L_0x555573796ca0 .functor MUXZ 2, L_0x555573796a00, L_0x7bfd0e64d690, L_0x555573795720, C4<>;
L_0x555573796e30 .cmp/ge 32, v0x55557377d700_0, L_0x7bfd0e64d9a8;
L_0x555573797040 .cmp/gt 32, L_0x7bfd0e64d9f0, v0x55557377d700_0;
L_0x5555737972d0 .cmp/ge 32, v0x55557377d700_0, L_0x7bfd0e64da38;
L_0x5555737974f0 .cmp/gt 32, L_0x7bfd0e64da80, v0x55557377d700_0;
L_0x5555737978a0 .cmp/ge 32, v0x55557377d700_0, L_0x7bfd0e64dac8;
L_0x5555737973c0 .cmp/gt 32, L_0x7bfd0e64db10, v0x55557377d700_0;
L_0x555573797800 .cmp/ge 32, v0x55557377d700_0, L_0x7bfd0e64db58;
L_0x555573798150 .cmp/gt 32, L_0x7bfd0e64dba0, v0x55557377d700_0;
L_0x555573798520 .reduce/nor L_0x555573798350;
S_0x555573777f20 .scope module, "u_slave0_ram" "axi_ram" 3 175, 5 7 0, S_0x55557372b430;
 .timescale -9 -12;
    .port_info 0 /INPUT 1 "clk";
    .port_info 1 /INPUT 1 "resetn";
    .port_info 2 /INPUT 16 "axi_awaddr";
    .port_info 3 /INPUT 3 "axi_awprot";
    .port_info 4 /INPUT 1 "axi_awvalid";
    .port_info 5 /OUTPUT 1 "axi_awready";
    .port_info 6 /INPUT 32 "axi_wdata";
    .port_info 7 /INPUT 1 "axi_wvalid";
    .port_info 8 /OUTPUT 1 "axi_wready";
    .port_info 9 /INPUT 4 "axi_wstrb";
    .port_info 10 /OUTPUT 1 "axi_bvalid";
    .port_info 11 /INPUT 1 "axi_bready";
    .port_info 12 /OUTPUT 2 "axi_bresp";
    .port_info 13 /INPUT 16 "axi_araddr";
    .port_info 14 /INPUT 3 "axi_arprot";
    .port_info 15 /INPUT 1 "axi_arvalid";
    .port_info 16 /OUTPUT 1 "axi_arready";
    .port_info 17 /OUTPUT 32 "axi_rdata";
    .port_info 18 /OUTPUT 1 "axi_rvalid";
    .port_info 19 /INPUT 1 "axi_rready";
    .port_info 20 /OUTPUT 2 "axi_rresp";
P_0x55557373b6c0 .param/l "ADDR_WIDTH" 0 5 8, +C4<00000000000000000000000000010000>;
P_0x55557373b700 .param/l "DATA_WIDTH" 0 5 9, +C4<00000000000000000000000000100000>;
P_0x55557373b740 .param/l "MEM_DEPTH" 1 5 58, +C4<00000000000000000100000000000000>;
P_0x55557373b780 .param/str "MEM_INIT_FILE" 0 5 10, "\000";
L_0x5555737988b0 .functor AND 1, L_0x555573798770, L_0x555573798810, C4<1>, C4<1>;
L_0x555573798b50 .functor AND 1, L_0x5555737989c0, L_0x555573798a60, C4<1>, C4<1>;
L_0x555573798c60 .functor BUFZ 1, v0x555573779c80_0, C4<0>, C4<0>, C4<0>;
L_0x555573798d70 .functor BUFZ 1, v0x55557377a000_0, C4<0>, C4<0>, C4<0>;
L_0x555573798e30 .functor BUFZ 32, v0x555573779e90_0, C4<00000000000000000000000000000000>, C4<00000000000000000000000000000000>, C4<00000000000000000000000000000000>;
v0x555573778770_0 .net *"_ivl_11", 0 0, L_0x5555737989c0;  1 drivers
v0x555573778850_0 .net *"_ivl_13", 0 0, L_0x555573798a60;  1 drivers
v0x555573778910_0 .net *"_ivl_5", 0 0, L_0x555573798770;  1 drivers
v0x5555737789b0_0 .net *"_ivl_7", 0 0, L_0x555573798810;  1 drivers
v0x555573778a70_0 .var "aw_addr_reg", 13 0;
v0x555573778ba0_0 .var "aw_done", 0 0;
v0x555573778c60_0 .net "axi_araddr", 15 0, L_0x555573798f90;  1 drivers
v0x555573778d40_0 .net "axi_arprot", 2 0, v0x5555737732e0_0;  alias, 1 drivers
v0x555573778e00_0 .net "axi_arready", 0 0, L_0x555573798cd0;  alias, 1 drivers
v0x555573778ea0_0 .net "axi_arvalid", 0 0, v0x555573773480_0;  alias, 1 drivers
v0x555573778f70_0 .net "axi_awaddr", 15 0, L_0x555573798ea0;  1 drivers
v0x555573779010_0 .net "axi_awprot", 2 0, v0x555573773620_0;  alias, 1 drivers
v0x5555737790e0_0 .net "axi_awready", 0 0, L_0x5555737988b0;  alias, 1 drivers
v0x5555737791b0_0 .net "axi_awvalid", 0 0, v0x5555737737c0_0;  alias, 1 drivers
v0x555573779280_0 .net "axi_bready", 0 0, v0x555573773880_0;  alias, 1 drivers
v0x555573779350_0 .net "axi_bresp", 1 0, L_0x7bfd0e64dbe8;  alias, 1 drivers
v0x555573779420_0 .net "axi_bvalid", 0 0, L_0x555573798c60;  alias, 1 drivers
v0x555573779600_0 .net "axi_rdata", 31 0, L_0x555573798e30;  alias, 1 drivers
v0x5555737796d0_0 .net "axi_rready", 0 0, v0x555573773bc0_0;  alias, 1 drivers
v0x5555737797a0_0 .net "axi_rresp", 1 0, L_0x7bfd0e64dc30;  alias, 1 drivers
v0x555573779870_0 .net "axi_rvalid", 0 0, L_0x555573798d70;  alias, 1 drivers
v0x555573779940_0 .net "axi_wdata", 31 0, v0x555573773e20_0;  alias, 1 drivers
v0x555573779a10_0 .net "axi_wready", 0 0, L_0x555573798b50;  alias, 1 drivers
v0x555573779ae0_0 .net "axi_wstrb", 3 0, v0x555573773fc0_0;  alias, 1 drivers
v0x555573779bb0_0 .net "axi_wvalid", 0 0, v0x5555737740a0_0;  alias, 1 drivers
v0x555573779c80_0 .var "bvalid_reg", 0 0;
v0x555573779d20_0 .net "clk", 0 0, v0x55557377d580_0;  alias, 1 drivers
v0x555573779df0 .array "memory", 16383 0, 31 0;
v0x555573779e90_0 .var "rdata_reg", 31 0;
v0x555573779f30_0 .net "resetn", 0 0, v0x55557377e770_0;  alias, 1 drivers
v0x55557377a000_0 .var "rvalid_reg", 0 0;
v0x55557377a0a0_0 .var "w_data_reg", 31 0;
v0x55557377a140_0 .var "w_done", 0 0;
v0x55557377a1e0_0 .var "w_strb_reg", 3 0;
L_0x555573798770 .reduce/nor v0x555573778ba0_0;
L_0x555573798810 .reduce/nor v0x555573779c80_0;
L_0x5555737989c0 .reduce/nor v0x55557377a140_0;
L_0x555573798a60 .reduce/nor v0x555573779c80_0;
L_0x555573798cd0 .reduce/nor v0x55557377a000_0;
S_0x5555737784c0 .scope begin, "$ivl_for_loop0" "$ivl_for_loop0" 5 63, 5 63 0, S_0x555573777f20;
 .timescale -9 -12;
v0x555573778670_0 .var/2s "i", 31 0;
S_0x55557377a500 .scope module, "u_slave1_ram" "axi_ram" 3 205, 5 7 0, S_0x55557372b430;
 .timescale -9 -12;
    .port_info 0 /INPUT 1 "clk";
    .port_info 1 /INPUT 1 "resetn";
    .port_info 2 /INPUT 17 "axi_awaddr";
    .port_info 3 /INPUT 3 "axi_awprot";
    .port_info 4 /INPUT 1 "axi_awvalid";
    .port_info 5 /OUTPUT 1 "axi_awready";
    .port_info 6 /INPUT 32 "axi_wdata";
    .port_info 7 /INPUT 1 "axi_wvalid";
    .port_info 8 /OUTPUT 1 "axi_wready";
    .port_info 9 /INPUT 4 "axi_wstrb";
    .port_info 10 /OUTPUT 1 "axi_bvalid";
    .port_info 11 /INPUT 1 "axi_bready";
    .port_info 12 /OUTPUT 2 "axi_bresp";
    .port_info 13 /INPUT 17 "axi_araddr";
    .port_info 14 /INPUT 3 "axi_arprot";
    .port_info 15 /INPUT 1 "axi_arvalid";
    .port_info 16 /OUTPUT 1 "axi_arready";
    .port_info 17 /OUTPUT 32 "axi_rdata";
    .port_info 18 /OUTPUT 1 "axi_rvalid";
    .port_info 19 /INPUT 1 "axi_rready";
    .port_info 20 /OUTPUT 2 "axi_rresp";
P_0x5555737794c0 .param/l "ADDR_WIDTH" 0 5 8, +C4<00000000000000000000000000010001>;
P_0x555573779500 .param/l "DATA_WIDTH" 0 5 9, +C4<00000000000000000000000000100000>;
P_0x555573779540 .param/l "MEM_DEPTH" 1 5 58, +C4<00000000000000001000000000000000>;
P_0x555573779580 .param/str "MEM_INIT_FILE" 0 5 10, "\000";
L_0x5555737991c0 .functor AND 1, L_0x555573799080, L_0x555573799120, C4<1>, C4<1>;
L_0x5555737994c0 .functor AND 1, L_0x5555737992d0, L_0x555573799370, C4<1>, C4<1>;
L_0x5555737995d0 .functor BUFZ 1, v0x55557377c3c0_0, C4<0>, C4<0>, C4<0>;
L_0x5555737996e0 .functor BUFZ 1, v0x55557377c730_0, C4<0>, C4<0>, C4<0>;
L_0x5555737997d0 .functor BUFZ 32, v0x55557377c5a0_0, C4<00000000000000000000000000000000>, C4<00000000000000000000000000000000>, C4<00000000000000000000000000000000>;
v0x55557377ae50_0 .net *"_ivl_11", 0 0, L_0x5555737992d0;  1 drivers
v0x55557377af30_0 .net *"_ivl_13", 0 0, L_0x555573799370;  1 drivers
v0x55557377aff0_0 .net *"_ivl_5", 0 0, L_0x555573799080;  1 drivers
v0x55557377b0c0_0 .net *"_ivl_7", 0 0, L_0x555573799120;  1 drivers
v0x55557377b180_0 .var "aw_addr_reg", 14 0;
v0x55557377b2b0_0 .var "aw_done", 0 0;
v0x55557377b370_0 .net "axi_araddr", 16 0, L_0x555573799930;  1 drivers
v0x55557377b450_0 .net "axi_arprot", 2 0, v0x555573774240_0;  alias, 1 drivers
v0x55557377b510_0 .net "axi_arready", 0 0, L_0x555573799640;  alias, 1 drivers
v0x55557377b5e0_0 .net "axi_arvalid", 0 0, v0x5555737743e0_0;  alias, 1 drivers
v0x55557377b6b0_0 .net "axi_awaddr", 16 0, L_0x555573799840;  1 drivers
v0x55557377b750_0 .net "axi_awprot", 2 0, v0x555573774580_0;  alias, 1 drivers
v0x55557377b820_0 .net "axi_awready", 0 0, L_0x5555737991c0;  alias, 1 drivers
v0x55557377b8f0_0 .net "axi_awvalid", 0 0, v0x555573774720_0;  alias, 1 drivers
v0x55557377b9c0_0 .net "axi_bready", 0 0, v0x5555737747e0_0;  alias, 1 drivers
v0x55557377ba90_0 .net "axi_bresp", 1 0, L_0x7bfd0e64dc78;  alias, 1 drivers
v0x55557377bb60_0 .net "axi_bvalid", 0 0, L_0x5555737995d0;  alias, 1 drivers
v0x55557377bd40_0 .net "axi_rdata", 31 0, L_0x5555737997d0;  alias, 1 drivers
v0x55557377be10_0 .net "axi_rready", 0 0, v0x555573774b20_0;  alias, 1 drivers
v0x55557377bee0_0 .net "axi_rresp", 1 0, L_0x7bfd0e64dcc0;  alias, 1 drivers
v0x55557377bfb0_0 .net "axi_rvalid", 0 0, L_0x5555737996e0;  alias, 1 drivers
v0x55557377c080_0 .net "axi_wdata", 31 0, v0x555573774d80_0;  alias, 1 drivers
v0x55557377c150_0 .net "axi_wready", 0 0, L_0x5555737994c0;  alias, 1 drivers
v0x55557377c220_0 .net "axi_wstrb", 3 0, v0x555573774f20_0;  alias, 1 drivers
v0x55557377c2f0_0 .net "axi_wvalid", 0 0, v0x555573775000_0;  alias, 1 drivers
v0x55557377c3c0_0 .var "bvalid_reg", 0 0;
v0x55557377c460_0 .net "clk", 0 0, v0x55557377d580_0;  alias, 1 drivers
v0x55557377c500 .array "memory", 32767 0, 31 0;
v0x55557377c5a0_0 .var "rdata_reg", 31 0;
v0x55557377c640_0 .net "resetn", 0 0, v0x55557377e770_0;  alias, 1 drivers
v0x55557377c730_0 .var "rvalid_reg", 0 0;
v0x55557377c7d0_0 .var "w_data_reg", 31 0;
v0x55557377c870_0 .var "w_done", 0 0;
v0x55557377cb20_0 .var "w_strb_reg", 3 0;
L_0x555573799080 .reduce/nor v0x55557377b2b0_0;
L_0x555573799120 .reduce/nor v0x55557377c3c0_0;
L_0x5555737992d0 .reduce/nor v0x55557377c870_0;
L_0x555573799370 .reduce/nor v0x55557377c3c0_0;
L_0x555573799640 .reduce/nor v0x55557377c730_0;
S_0x55557377ab50 .scope begin, "$ivl_for_loop0" "$ivl_for_loop0" 5 63, 5 63 0, S_0x55557377a500;
 .timescale -9 -12;
v0x55557377ad50_0 .var/2s "i", 31 0;
    .scope S_0x55557376aa10;
T_2 ;
    %wait E_0x55557369aff0;
    %load/vec4 v0x555573773140_0;
    %nor/r;
    %flag_set/vec4 8;
    %jmp/0xz  T_2.0, 8;
    %pushi/vec4 0, 0, 2;
    %assign/vec4 v0x555573777220_0, 0;
    %pushi/vec4 0, 0, 2;
    %assign/vec4 v0x555573777140_0, 0;
    %pushi/vec4 0, 0, 32;
    %assign/vec4 v0x555573776f80_0, 0;
    %pushi/vec4 0, 0, 3;
    %assign/vec4 v0x555573777060_0, 0;
    %jmp T_2.1;
T_2.0 ;
    %load/vec4 v0x555573777220_0;
    %dup/vec4;
    %pushi/vec4 0, 0, 2;
    %cmp/u;
    %jmp/1 T_2.2, 6;
    %dup/vec4;
    %pushi/vec4 1, 0, 2;
    %cmp/u;
    %jmp/1 T_2.3, 6;
    %dup/vec4;
    %pushi/vec4 2, 0, 2;
    %cmp/u;
    %jmp/1 T_2.4, 6;
    %dup/vec4;
    %pushi/vec4 3, 0, 2;
    %cmp/u;
    %jmp/1 T_2.5, 6;
    %jmp T_2.6;
T_2.2 ;
    %load/vec4 v0x555573771b50_0;
    %flag_set/vec4 9;
    %flag_get/vec4 9;
    %jmp/0 T_2.9, 9;
    %load/vec4 v0x555573771c10_0;
    %and;
T_2.9;
    %flag_set/vec4 8;
    %jmp/0xz  T_2.7, 8;
    %load/vec4 v0x5555737714b0_0;
    %assign/vec4 v0x555573777140_0, 0;
    %load/vec4 v0x555573771990_0;
    %assign/vec4 v0x555573776f80_0, 0;
    %load/vec4 v0x555573771a70_0;
    %assign/vec4 v0x555573777060_0, 0;
    %load/vec4 v0x5555737713f0_0;
    %flag_set/vec4 8;
    %jmp/0xz  T_2.10, 8;
    %pushi/vec4 3, 0, 2;
    %assign/vec4 v0x555573777220_0, 0;
    %jmp T_2.11;
T_2.10 ;
    %pushi/vec4 1, 0, 2;
    %assign/vec4 v0x555573777220_0, 0;
T_2.11 ;
T_2.7 ;
    %jmp T_2.6;
T_2.3 ;
    %load/vec4 v0x555573772350_0;
    %flag_set/vec4 9;
    %flag_get/vec4 9;
    %jmp/0 T_2.14, 9;
    %load/vec4 v0x5555737724f0_0;
    %and;
T_2.14;
    %flag_set/vec4 8;
    %jmp/0xz  T_2.12, 8;
    %pushi/vec4 2, 0, 2;
    %assign/vec4 v0x555573777220_0, 0;
T_2.12 ;
    %jmp T_2.6;
T_2.4 ;
    %load/vec4 v0x555573771e70_0;
    %flag_set/vec4 9;
    %flag_get/vec4 9;
    %jmp/0 T_2.17, 9;
    %load/vec4 v0x555573771cd0_0;
    %and;
T_2.17;
    %flag_set/vec4 8;
    %jmp/0xz  T_2.15, 8;
    %pushi/vec4 0, 0, 2;
    %assign/vec4 v0x555573777220_0, 0;
T_2.15 ;
    %jmp T_2.6;
T_2.5 ;
    %load/vec4 v0x555573771cd0_0;
    %flag_set/vec4 8;
    %jmp/0xz  T_2.18, 8;
    %pushi/vec4 0, 0, 2;
    %assign/vec4 v0x555573777220_0, 0;
T_2.18 ;
    %jmp T_2.6;
T_2.6 ;
    %pop/vec4 1;
T_2.1 ;
    %jmp T_2;
    .thread T_2;
    .scope S_0x55557376aa10;
T_3 ;
    %wait E_0x55557369aff0;
    %load/vec4 v0x555573773140_0;
    %nor/r;
    %flag_set/vec4 8;
    %jmp/0xz  T_3.0, 8;
    %pushi/vec4 0, 0, 2;
    %assign/vec4 v0x555573773060_0, 0;
    %pushi/vec4 0, 0, 2;
    %assign/vec4 v0x555573772770_0, 0;
    %pushi/vec4 0, 0, 32;
    %assign/vec4 v0x5555737725b0_0, 0;
    %pushi/vec4 0, 0, 3;
    %assign/vec4 v0x555573772690_0, 0;
    %jmp T_3.1;
T_3.0 ;
    %load/vec4 v0x555573773060_0;
    %dup/vec4;
    %pushi/vec4 0, 0, 2;
    %cmp/u;
    %jmp/1 T_3.2, 6;
    %dup/vec4;
    %pushi/vec4 1, 0, 2;
    %cmp/u;
    %jmp/1 T_3.3, 6;
    %dup/vec4;
    %pushi/vec4 2, 0, 2;
    %cmp/u;
    %jmp/1 T_3.4, 6;
    %jmp T_3.5;
T_3.2 ;
    %load/vec4 v0x555573771810_0;
    %flag_set/vec4 9;
    %flag_get/vec4 9;
    %jmp/0 T_3.8, 9;
    %load/vec4 v0x5555737718d0_0;
    %and;
T_3.8;
    %flag_set/vec4 8;
    %jmp/0xz  T_3.6, 8;
    %load/vec4 v0x555573771310_0;
    %assign/vec4 v0x555573772770_0, 0;
    %load/vec4 v0x555573771650_0;
    %assign/vec4 v0x5555737725b0_0, 0;
    %load/vec4 v0x555573771730_0;
    %assign/vec4 v0x555573772690_0, 0;
    %load/vec4 v0x555573771250_0;
    %flag_set/vec4 8;
    %jmp/0xz  T_3.9, 8;
    %pushi/vec4 2, 0, 2;
    %assign/vec4 v0x555573773060_0, 0;
    %jmp T_3.10;
T_3.9 ;
    %pushi/vec4 1, 0, 2;
    %assign/vec4 v0x555573773060_0, 0;
T_3.10 ;
T_3.6 ;
    %jmp T_3.5;
T_3.3 ;
    %load/vec4 v0x5555737721b0_0;
    %flag_set/vec4 9;
    %flag_get/vec4 9;
    %jmp/0 T_3.13, 9;
    %load/vec4 v0x555573772010_0;
    %and;
T_3.13;
    %flag_set/vec4 8;
    %jmp/0xz  T_3.11, 8;
    %pushi/vec4 0, 0, 2;
    %assign/vec4 v0x555573773060_0, 0;
T_3.11 ;
    %jmp T_3.5;
T_3.4 ;
    %load/vec4 v0x555573772010_0;
    %flag_set/vec4 8;
    %jmp/0xz  T_3.14, 8;
    %pushi/vec4 0, 0, 2;
    %assign/vec4 v0x555573773060_0, 0;
T_3.14 ;
    %jmp T_3.5;
T_3.5 ;
    %pop/vec4 1;
T_3.1 ;
    %jmp T_3;
    .thread T_3;
    .scope S_0x55557376aa10;
T_4 ;
Ewait_0 .event/or E_0x55557376bc60, E_0x0;
    %wait Ewait_0;
    %pushi/vec4 0, 0, 1;
    %store/vec4 v0x5555737737c0_0, 0, 1;
    %pushi/vec4 0, 0, 32;
    %store/vec4 v0x555573773540_0, 0, 32;
    %pushi/vec4 0, 0, 3;
    %store/vec4 v0x555573773620_0, 0, 3;
    %pushi/vec4 0, 0, 1;
    %store/vec4 v0x555573774720_0, 0, 1;
    %pushi/vec4 0, 0, 32;
    %store/vec4 v0x5555737744a0_0, 0, 32;
    %pushi/vec4 0, 0, 3;
    %store/vec4 v0x555573774580_0, 0, 3;
    %pushi/vec4 0, 0, 1;
    %store/vec4 v0x555573775680_0, 0, 1;
    %pushi/vec4 0, 0, 32;
    %store/vec4 v0x555573775400_0, 0, 32;
    %pushi/vec4 0, 0, 3;
    %store/vec4 v0x5555737754e0_0, 0, 3;
    %pushi/vec4 0, 0, 1;
    %store/vec4 v0x5555737765e0_0, 0, 1;
    %pushi/vec4 0, 0, 32;
    %store/vec4 v0x555573776360_0, 0, 32;
    %pushi/vec4 0, 0, 3;
    %store/vec4 v0x555573776440_0, 0, 3;
    %pushi/vec4 0, 0, 1;
    %store/vec4 v0x555573771b50_0, 0, 1;
    %load/vec4 v0x555573777220_0;
    %cmpi/e 0, 0, 2;
    %flag_get/vec4 4;
    %jmp/0 T_4.3, 4;
    %load/vec4 v0x555573771c10_0;
    %and;
T_4.3;
    %flag_set/vec4 9;
    %flag_get/vec4 9;
    %jmp/0 T_4.2, 9;
    %load/vec4 v0x5555737713f0_0;
    %nor/r;
    %and;
T_4.2;
    %flag_set/vec4 8;
    %jmp/0xz  T_4.0, 8;
    %load/vec4 v0x5555737714b0_0;
    %dup/vec4;
    %pushi/vec4 0, 0, 2;
    %cmp/u;
    %jmp/1 T_4.4, 6;
    %dup/vec4;
    %pushi/vec4 1, 0, 2;
    %cmp/u;
    %jmp/1 T_4.5, 6;
    %dup/vec4;
    %pushi/vec4 2, 0, 2;
    %cmp/u;
    %jmp/1 T_4.6, 6;
    %dup/vec4;
    %pushi/vec4 3, 0, 2;
    %cmp/u;
    %jmp/1 T_4.7, 6;
    %jmp T_4.8;
T_4.4 ;
    %pushi/vec4 1, 0, 1;
    %store/vec4 v0x5555737737c0_0, 0, 1;
    %load/vec4 v0x555573771990_0;
    %store/vec4 v0x555573773540_0, 0, 32;
    %load/vec4 v0x555573771a70_0;
    %store/vec4 v0x555573773620_0, 0, 3;
    %load/vec4 v0x555573773700_0;
    %store/vec4 v0x555573771b50_0, 0, 1;
    %jmp T_4.8;
T_4.5 ;
    %pushi/vec4 1, 0, 1;
    %store/vec4 v0x555573774720_0, 0, 1;
    %load/vec4 v0x555573771990_0;
    %store/vec4 v0x5555737744a0_0, 0, 32;
    %load/vec4 v0x555573771a70_0;
    %store/vec4 v0x555573774580_0, 0, 3;
    %load/vec4 v0x555573774660_0;
    %store/vec4 v0x555573771b50_0, 0, 1;
    %jmp T_4.8;
T_4.6 ;
    %pushi/vec4 1, 0, 1;
    %store/vec4 v0x555573775680_0, 0, 1;
    %load/vec4 v0x555573771990_0;
    %store/vec4 v0x555573775400_0, 0, 32;
    %load/vec4 v0x555573771a70_0;
    %store/vec4 v0x5555737754e0_0, 0, 3;
    %load/vec4 v0x5555737755c0_0;
    %store/vec4 v0x555573771b50_0, 0, 1;
    %jmp T_4.8;
T_4.7 ;
    %pushi/vec4 1, 0, 1;
    %store/vec4 v0x5555737765e0_0, 0, 1;
    %load/vec4 v0x555573771990_0;
    %store/vec4 v0x555573776360_0, 0, 32;
    %load/vec4 v0x555573771a70_0;
    %store/vec4 v0x555573776440_0, 0, 3;
    %load/vec4 v0x555573776520_0;
    %store/vec4 v0x555573771b50_0, 0, 1;
    %jmp T_4.8;
T_4.8 ;
    %pop/vec4 1;
    %jmp T_4.1;
T_4.0 ;
    %load/vec4 v0x555573777220_0;
    %cmpi/e 0, 0, 2;
    %flag_get/vec4 4;
    %jmp/0 T_4.12, 4;
    %load/vec4 v0x555573771c10_0;
    %and;
T_4.12;
    %flag_set/vec4 9;
    %flag_get/vec4 9;
    %jmp/0 T_4.11, 9;
    %load/vec4 v0x5555737713f0_0;
    %and;
T_4.11;
    %flag_set/vec4 8;
    %jmp/0xz  T_4.9, 8;
    %pushi/vec4 1, 0, 1;
    %store/vec4 v0x555573771b50_0, 0, 1;
T_4.9 ;
T_4.1 ;
    %jmp T_4;
    .thread T_4, $push;
    .scope S_0x55557376aa10;
T_5 ;
Ewait_1 .event/or E_0x55557376bba0, E_0x0;
    %wait Ewait_1;
    %pushi/vec4 0, 0, 1;
    %store/vec4 v0x5555737740a0_0, 0, 1;
    %pushi/vec4 0, 0, 32;
    %store/vec4 v0x555573773e20_0, 0, 32;
    %pushi/vec4 0, 0, 4;
    %store/vec4 v0x555573773fc0_0, 0, 4;
    %pushi/vec4 0, 0, 1;
    %store/vec4 v0x555573775000_0, 0, 1;
    %pushi/vec4 0, 0, 32;
    %store/vec4 v0x555573774d80_0, 0, 32;
    %pushi/vec4 0, 0, 4;
    %store/vec4 v0x555573774f20_0, 0, 4;
    %pushi/vec4 0, 0, 1;
    %store/vec4 v0x555573775f60_0, 0, 1;
    %pushi/vec4 0, 0, 32;
    %store/vec4 v0x555573775ce0_0, 0, 32;
    %pushi/vec4 0, 0, 4;
    %store/vec4 v0x555573775e80_0, 0, 4;
    %pushi/vec4 0, 0, 1;
    %store/vec4 v0x555573776ec0_0, 0, 1;
    %pushi/vec4 0, 0, 32;
    %store/vec4 v0x555573776c40_0, 0, 32;
    %pushi/vec4 0, 0, 4;
    %store/vec4 v0x555573776de0_0, 0, 4;
    %pushi/vec4 0, 0, 1;
    %store/vec4 v0x555573772350_0, 0, 1;
    %load/vec4 v0x555573777220_0;
    %cmpi/e 1, 0, 2;
    %jmp/0xz  T_5.0, 4;
    %load/vec4 v0x555573777140_0;
    %dup/vec4;
    %pushi/vec4 0, 0, 2;
    %cmp/u;
    %jmp/1 T_5.2, 6;
    %dup/vec4;
    %pushi/vec4 1, 0, 2;
    %cmp/u;
    %jmp/1 T_5.3, 6;
    %dup/vec4;
    %pushi/vec4 2, 0, 2;
    %cmp/u;
    %jmp/1 T_5.4, 6;
    %dup/vec4;
    %pushi/vec4 3, 0, 2;
    %cmp/u;
    %jmp/1 T_5.5, 6;
    %jmp T_5.6;
T_5.2 ;
    %load/vec4 v0x5555737724f0_0;
    %store/vec4 v0x5555737740a0_0, 0, 1;
    %load/vec4 v0x555573772270_0;
    %store/vec4 v0x555573773e20_0, 0, 32;
    %load/vec4 v0x555573772410_0;
    %store/vec4 v0x555573773fc0_0, 0, 4;
    %load/vec4 v0x555573773f00_0;
    %store/vec4 v0x555573772350_0, 0, 1;
    %jmp T_5.6;
T_5.3 ;
    %load/vec4 v0x5555737724f0_0;
    %store/vec4 v0x555573775000_0, 0, 1;
    %load/vec4 v0x555573772270_0;
    %store/vec4 v0x555573774d80_0, 0, 32;
    %load/vec4 v0x555573772410_0;
    %store/vec4 v0x555573774f20_0, 0, 4;
    %load/vec4 v0x555573774e60_0;
    %store/vec4 v0x555573772350_0, 0, 1;
    %jmp T_5.6;
T_5.4 ;
    %load/vec4 v0x5555737724f0_0;
    %store/vec4 v0x555573775f60_0, 0, 1;
    %load/vec4 v0x555573772270_0;
    %store/vec4 v0x555573775ce0_0, 0, 32;
    %load/vec4 v0x555573772410_0;
    %store/vec4 v0x555573775e80_0, 0, 4;
    %load/vec4 v0x555573775dc0_0;
    %store/vec4 v0x555573772350_0, 0, 1;
    %jmp T_5.6;
T_5.5 ;
    %load/vec4 v0x5555737724f0_0;
    %store/vec4 v0x555573776ec0_0, 0, 1;
    %load/vec4 v0x555573772270_0;
    %store/vec4 v0x555573776c40_0, 0, 32;
    %load/vec4 v0x555573772410_0;
    %store/vec4 v0x555573776de0_0, 0, 4;
    %load/vec4 v0x555573776d20_0;
    %store/vec4 v0x555573772350_0, 0, 1;
    %jmp T_5.6;
T_5.6 ;
    %pop/vec4 1;
    %jmp T_5.1;
T_5.0 ;
    %load/vec4 v0x555573777220_0;
    %cmpi/e 3, 0, 2;
    %jmp/0xz  T_5.7, 4;
    %load/vec4 v0x5555737724f0_0;
    %store/vec4 v0x555573772350_0, 0, 1;
T_5.7 ;
T_5.1 ;
    %jmp T_5;
    .thread T_5, $push;
    .scope S_0x55557376aa10;
T_6 ;
Ewait_2 .event/or E_0x55557376bb00, E_0x0;
    %wait Ewait_2;
    %pushi/vec4 0, 0, 1;
    %store/vec4 v0x555573771e70_0, 0, 1;
    %pushi/vec4 0, 0, 2;
    %store/vec4 v0x555573771d90_0, 0, 2;
    %pushi/vec4 0, 0, 1;
    %store/vec4 v0x555573773880_0, 0, 1;
    %pushi/vec4 0, 0, 1;
    %store/vec4 v0x5555737747e0_0, 0, 1;
    %pushi/vec4 0, 0, 1;
    %store/vec4 v0x555573775740_0, 0, 1;
    %pushi/vec4 0, 0, 1;
    %store/vec4 v0x5555737766a0_0, 0, 1;
    %load/vec4 v0x555573777220_0;
    %cmpi/e 2, 0, 2;
    %jmp/0xz  T_6.0, 4;
    %load/vec4 v0x555573777140_0;
    %dup/vec4;
    %pushi/vec4 0, 0, 2;
    %cmp/u;
    %jmp/1 T_6.2, 6;
    %dup/vec4;
    %pushi/vec4 1, 0, 2;
    %cmp/u;
    %jmp/1 T_6.3, 6;
    %dup/vec4;
    %pushi/vec4 2, 0, 2;
    %cmp/u;
    %jmp/1 T_6.4, 6;
    %dup/vec4;
    %pushi/vec4 3, 0, 2;
    %cmp/u;
    %jmp/1 T_6.5, 6;
    %jmp T_6.6;
T_6.2 ;
    %load/vec4 v0x555573773a20_0;
    %store/vec4 v0x555573771e70_0, 0, 1;
    %load/vec4 v0x555573773940_0;
    %store/vec4 v0x555573771d90_0, 0, 2;
    %load/vec4 v0x555573771cd0_0;
    %store/vec4 v0x555573773880_0, 0, 1;
    %jmp T_6.6;
T_6.3 ;
    %load/vec4 v0x555573774980_0;
    %store/vec4 v0x555573771e70_0, 0, 1;
    %load/vec4 v0x5555737748a0_0;
    %store/vec4 v0x555573771d90_0, 0, 2;
    %load/vec4 v0x555573771cd0_0;
    %store/vec4 v0x5555737747e0_0, 0, 1;
    %jmp T_6.6;
T_6.4 ;
    %load/vec4 v0x5555737758e0_0;
    %store/vec4 v0x555573771e70_0, 0, 1;
    %load/vec4 v0x555573775800_0;
    %store/vec4 v0x555573771d90_0, 0, 2;
    %load/vec4 v0x555573771cd0_0;
    %store/vec4 v0x555573775740_0, 0, 1;
    %jmp T_6.6;
T_6.5 ;
    %load/vec4 v0x555573776840_0;
    %store/vec4 v0x555573771e70_0, 0, 1;
    %load/vec4 v0x555573776760_0;
    %store/vec4 v0x555573771d90_0, 0, 2;
    %load/vec4 v0x555573771cd0_0;
    %store/vec4 v0x5555737766a0_0, 0, 1;
    %jmp T_6.6;
T_6.6 ;
    %pop/vec4 1;
    %jmp T_6.1;
T_6.0 ;
    %load/vec4 v0x555573777220_0;
    %cmpi/e 3, 0, 2;
    %jmp/0xz  T_6.7, 4;
    %pushi/vec4 1, 0, 1;
    %store/vec4 v0x555573771e70_0, 0, 1;
    %pushi/vec4 3, 0, 2;
    %store/vec4 v0x555573771d90_0, 0, 2;
T_6.7 ;
T_6.1 ;
    %jmp T_6;
    .thread T_6, $push;
    .scope S_0x55557376aa10;
T_7 ;
Ewait_3 .event/or E_0x55557376ba50, E_0x0;
    %wait Ewait_3;
    %pushi/vec4 0, 0, 1;
    %store/vec4 v0x555573773480_0, 0, 1;
    %pushi/vec4 0, 0, 32;
    %store/vec4 v0x555573773200_0, 0, 32;
    %pushi/vec4 0, 0, 3;
    %store/vec4 v0x5555737732e0_0, 0, 3;
    %pushi/vec4 0, 0, 1;
    %store/vec4 v0x5555737743e0_0, 0, 1;
    %pushi/vec4 0, 0, 32;
    %store/vec4 v0x555573774160_0, 0, 32;
    %pushi/vec4 0, 0, 3;
    %store/vec4 v0x555573774240_0, 0, 3;
    %pushi/vec4 0, 0, 1;
    %store/vec4 v0x555573775340_0, 0, 1;
    %pushi/vec4 0, 0, 32;
    %store/vec4 v0x5555737750c0_0, 0, 32;
    %pushi/vec4 0, 0, 3;
    %store/vec4 v0x5555737751a0_0, 0, 3;
    %pushi/vec4 0, 0, 1;
    %store/vec4 v0x5555737762a0_0, 0, 1;
    %pushi/vec4 0, 0, 32;
    %store/vec4 v0x555573776020_0, 0, 32;
    %pushi/vec4 0, 0, 3;
    %store/vec4 v0x555573776100_0, 0, 3;
    %pushi/vec4 0, 0, 1;
    %store/vec4 v0x555573771810_0, 0, 1;
    %load/vec4 v0x555573773060_0;
    %cmpi/e 0, 0, 2;
    %flag_get/vec4 4;
    %jmp/0 T_7.3, 4;
    %load/vec4 v0x5555737718d0_0;
    %and;
T_7.3;
    %flag_set/vec4 9;
    %flag_get/vec4 9;
    %jmp/0 T_7.2, 9;
    %load/vec4 v0x555573771250_0;
    %nor/r;
    %and;
T_7.2;
    %flag_set/vec4 8;
    %jmp/0xz  T_7.0, 8;
    %load/vec4 v0x555573771310_0;
    %dup/vec4;
    %pushi/vec4 0, 0, 2;
    %cmp/u;
    %jmp/1 T_7.4, 6;
    %dup/vec4;
    %pushi/vec4 1, 0, 2;
    %cmp/u;
    %jmp/1 T_7.5, 6;
    %dup/vec4;
    %pushi/vec4 2, 0, 2;
    %cmp/u;
    %jmp/1 T_7.6, 6;
    %dup/vec4;
    %pushi/vec4 3, 0, 2;
    %cmp/u;
    %jmp/1 T_7.7, 6;
    %jmp T_7.8;
T_7.4 ;
    %pushi/vec4 1, 0, 1;
    %store/vec4 v0x555573773480_0, 0, 1;
    %load/vec4 v0x555573771650_0;
    %store/vec4 v0x555573773200_0, 0, 32;
    %load/vec4 v0x555573771730_0;
    %store/vec4 v0x5555737732e0_0, 0, 3;
    %load/vec4 v0x5555737733c0_0;
    %store/vec4 v0x555573771810_0, 0, 1;
    %jmp T_7.8;
T_7.5 ;
    %pushi/vec4 1, 0, 1;
    %store/vec4 v0x5555737743e0_0, 0, 1;
    %load/vec4 v0x555573771650_0;
    %store/vec4 v0x555573774160_0, 0, 32;
    %load/vec4 v0x555573771730_0;
    %store/vec4 v0x555573774240_0, 0, 3;
    %load/vec4 v0x555573774320_0;
    %store/vec4 v0x555573771810_0, 0, 1;
    %jmp T_7.8;
T_7.6 ;
    %pushi/vec4 1, 0, 1;
    %store/vec4 v0x555573775340_0, 0, 1;
    %load/vec4 v0x555573771650_0;
    %store/vec4 v0x5555737750c0_0, 0, 32;
    %load/vec4 v0x555573771730_0;
    %store/vec4 v0x5555737751a0_0, 0, 3;
    %load/vec4 v0x555573775280_0;
    %store/vec4 v0x555573771810_0, 0, 1;
    %jmp T_7.8;
T_7.7 ;
    %pushi/vec4 1, 0, 1;
    %store/vec4 v0x5555737762a0_0, 0, 1;
    %load/vec4 v0x555573771650_0;
    %store/vec4 v0x555573776020_0, 0, 32;
    %load/vec4 v0x555573771730_0;
    %store/vec4 v0x555573776100_0, 0, 3;
    %load/vec4 v0x5555737761e0_0;
    %store/vec4 v0x555573771810_0, 0, 1;
    %jmp T_7.8;
T_7.8 ;
    %pop/vec4 1;
    %jmp T_7.1;
T_7.0 ;
    %load/vec4 v0x555573773060_0;
    %cmpi/e 1, 0, 2;
    %jmp/0xz  T_7.9, 4;
    %load/vec4 v0x555573772770_0;
    %dup/vec4;
    %pushi/vec4 0, 0, 2;
    %cmp/u;
    %jmp/1 T_7.11, 6;
    %dup/vec4;
    %pushi/vec4 1, 0, 2;
    %cmp/u;
    %jmp/1 T_7.12, 6;
    %dup/vec4;
    %pushi/vec4 2, 0, 2;
    %cmp/u;
    %jmp/1 T_7.13, 6;
    %dup/vec4;
    %pushi/vec4 3, 0, 2;
    %cmp/u;
    %jmp/1 T_7.14, 6;
    %jmp T_7.15;
T_7.11 ;
    %load/vec4 v0x555573772690_0;
    %store/vec4 v0x5555737732e0_0, 0, 3;
    %jmp T_7.15;
T_7.12 ;
    %load/vec4 v0x555573772690_0;
    %store/vec4 v0x555573774240_0, 0, 3;
    %jmp T_7.15;
T_7.13 ;
    %load/vec4 v0x555573772690_0;
    %store/vec4 v0x5555737751a0_0, 0, 3;
    %jmp T_7.15;
T_7.14 ;
    %load/vec4 v0x555573772690_0;
    %store/vec4 v0x555573776100_0, 0, 3;
    %jmp T_7.15;
T_7.15 ;
    %pop/vec4 1;
    %jmp T_7.10;
T_7.9 ;
    %load/vec4 v0x555573773060_0;
    %cmpi/e 0, 0, 2;
    %flag_get/vec4 4;
    %jmp/0 T_7.19, 4;
    %load/vec4 v0x5555737718d0_0;
    %and;
T_7.19;
    %flag_set/vec4 9;
    %flag_get/vec4 9;
    %jmp/0 T_7.18, 9;
    %load/vec4 v0x555573771250_0;
    %and;
T_7.18;
    %flag_set/vec4 8;
    %jmp/0xz  T_7.16, 8;
    %pushi/vec4 1, 0, 1;
    %store/vec4 v0x555573771810_0, 0, 1;
T_7.16 ;
T_7.10 ;
T_7.1 ;
    %jmp T_7;
    .thread T_7, $push;
    .scope S_0x55557376aa10;
T_8 ;
Ewait_4 .event/or E_0x55557376b990, E_0x0;
    %wait Ewait_4;
    %pushi/vec4 3735928559, 0, 32;
    %store/vec4 v0x555573771f30_0, 0, 32;
    %pushi/vec4 0, 0, 2;
    %store/vec4 v0x5555737720d0_0, 0, 2;
    %pushi/vec4 0, 0, 1;
    %store/vec4 v0x5555737721b0_0, 0, 1;
    %pushi/vec4 0, 0, 1;
    %store/vec4 v0x555573773bc0_0, 0, 1;
    %pushi/vec4 0, 0, 1;
    %store/vec4 v0x555573774b20_0, 0, 1;
    %pushi/vec4 0, 0, 1;
    %store/vec4 v0x555573775a80_0, 0, 1;
    %pushi/vec4 0, 0, 1;
    %store/vec4 v0x5555737769e0_0, 0, 1;
    %load/vec4 v0x555573773060_0;
    %cmpi/e 1, 0, 2;
    %jmp/0xz  T_8.0, 4;
    %load/vec4 v0x555573772770_0;
    %dup/vec4;
    %pushi/vec4 0, 0, 2;
    %cmp/u;
    %jmp/1 T_8.2, 6;
    %dup/vec4;
    %pushi/vec4 1, 0, 2;
    %cmp/u;
    %jmp/1 T_8.3, 6;
    %dup/vec4;
    %pushi/vec4 2, 0, 2;
    %cmp/u;
    %jmp/1 T_8.4, 6;
    %dup/vec4;
    %pushi/vec4 3, 0, 2;
    %cmp/u;
    %jmp/1 T_8.5, 6;
    %jmp T_8.6;
T_8.2 ;
    %load/vec4 v0x555573773ae0_0;
    %store/vec4 v0x555573771f30_0, 0, 32;
    %load/vec4 v0x555573773c80_0;
    %store/vec4 v0x5555737720d0_0, 0, 2;
    %load/vec4 v0x555573773d60_0;
    %store/vec4 v0x5555737721b0_0, 0, 1;
    %load/vec4 v0x555573772010_0;
    %store/vec4 v0x555573773bc0_0, 0, 1;
    %jmp T_8.6;
T_8.3 ;
    %load/vec4 v0x555573774a40_0;
    %store/vec4 v0x555573771f30_0, 0, 32;
    %load/vec4 v0x555573774be0_0;
    %store/vec4 v0x5555737720d0_0, 0, 2;
    %load/vec4 v0x555573774cc0_0;
    %store/vec4 v0x5555737721b0_0, 0, 1;
    %load/vec4 v0x555573772010_0;
    %store/vec4 v0x555573774b20_0, 0, 1;
    %jmp T_8.6;
T_8.4 ;
    %load/vec4 v0x5555737759a0_0;
    %store/vec4 v0x555573771f30_0, 0, 32;
    %load/vec4 v0x555573775b40_0;
    %store/vec4 v0x5555737720d0_0, 0, 2;
    %load/vec4 v0x555573775c20_0;
    %store/vec4 v0x5555737721b0_0, 0, 1;
    %load/vec4 v0x555573772010_0;
    %store/vec4 v0x555573775a80_0, 0, 1;
    %jmp T_8.6;
T_8.5 ;
    %load/vec4 v0x555573776900_0;
    %store/vec4 v0x555573771f30_0, 0, 32;
    %load/vec4 v0x555573776aa0_0;
    %store/vec4 v0x5555737720d0_0, 0, 2;
    %load/vec4 v0x555573776b80_0;
    %store/vec4 v0x5555737721b0_0, 0, 1;
    %load/vec4 v0x555573772010_0;
    %store/vec4 v0x5555737769e0_0, 0, 1;
    %jmp T_8.6;
T_8.6 ;
    %pop/vec4 1;
    %jmp T_8.1;
T_8.0 ;
    %load/vec4 v0x555573773060_0;
    %cmpi/e 2, 0, 2;
    %jmp/0xz  T_8.7, 4;
    %pushi/vec4 3735936685, 0, 32;
    %store/vec4 v0x555573771f30_0, 0, 32;
    %pushi/vec4 3, 0, 2;
    %store/vec4 v0x5555737720d0_0, 0, 2;
    %pushi/vec4 1, 0, 1;
    %store/vec4 v0x5555737721b0_0, 0, 1;
T_8.7 ;
T_8.1 ;
    %jmp T_8;
    .thread T_8, $push;
    .scope S_0x555573777f20;
T_9 ;
    %end;
    .thread T_9;
    .scope S_0x555573777f20;
T_10 ;
    %fork t_4, S_0x5555737784c0;
    %jmp t_3;
    .scope S_0x5555737784c0;
t_4 ;
    %pushi/vec4 0, 0, 32;
    %store/vec4 v0x555573778670_0, 0, 32;
T_10.0 ; Top of for-loop
    %load/vec4 v0x555573778670_0;
    %cmpi/s 16384, 0, 32;
	  %jmp/0xz T_10.1, 5;
    %pushi/vec4 0, 0, 32;
    %ix/getv/s 4, v0x555573778670_0;
    %store/vec4a v0x555573779df0, 4, 0;
T_10.2 ; for-loop step statement
    ; show_stmt_assign_vector: Get l-value for compressed += operand
    %load/vec4 v0x555573778670_0;
    %pushi/vec4 1, 0, 32;
    %add;
    %cast2;
    %store/vec4 v0x555573778670_0, 0, 32;
    %jmp T_10.0;
T_10.1 ; for-loop exit label
    %end;
    .scope S_0x555573777f20;
t_3 %join;
    %end;
    .thread T_10;
    .scope S_0x555573777f20;
T_11 ;
    %wait E_0x55557369aff0;
    %load/vec4 v0x555573779f30_0;
    %nor/r;
    %flag_set/vec4 8;
    %jmp/0xz  T_11.0, 8;
    %pushi/vec4 0, 0, 1;
    %assign/vec4 v0x555573778ba0_0, 0;
    %pushi/vec4 0, 0, 1;
    %assign/vec4 v0x55557377a140_0, 0;
    %pushi/vec4 0, 0, 1;
    %assign/vec4 v0x555573779c80_0, 0;
    %pushi/vec4 0, 0, 14;
    %assign/vec4 v0x555573778a70_0, 0;
    %pushi/vec4 0, 0, 32;
    %assign/vec4 v0x55557377a0a0_0, 0;
    %pushi/vec4 0, 0, 4;
    %assign/vec4 v0x55557377a1e0_0, 0;
    %jmp T_11.1;
T_11.0 ;
    %load/vec4 v0x5555737791b0_0;
    %flag_set/vec4 9;
    %flag_get/vec4 9;
    %jmp/0 T_11.4, 9;
    %load/vec4 v0x5555737790e0_0;
    %and;
T_11.4;
    %flag_set/vec4 8;
    %jmp/0xz  T_11.2, 8;
    %load/vec4 v0x555573778f70_0;
    %parti/s 14, 2, 3;
    %assign/vec4 v0x555573778a70_0, 0;
    %pushi/vec4 1, 0, 1;
    %assign/vec4 v0x555573778ba0_0, 0;
T_11.2 ;
    %load/vec4 v0x555573779bb0_0;
    %flag_set/vec4 9;
    %flag_get/vec4 9;
    %jmp/0 T_11.7, 9;
    %load/vec4 v0x555573779a10_0;
    %and;
T_11.7;
    %flag_set/vec4 8;
    %jmp/0xz  T_11.5, 8;
    %load/vec4 v0x555573779940_0;
    %assign/vec4 v0x55557377a0a0_0, 0;
    %load/vec4 v0x555573779ae0_0;
    %assign/vec4 v0x55557377a1e0_0, 0;
    %pushi/vec4 1, 0, 1;
    %assign/vec4 v0x55557377a140_0, 0;
T_11.5 ;
    %load/vec4 v0x555573778ba0_0;
    %flag_set/vec4 10;
    %flag_get/vec4 10;
    %jmp/0 T_11.11, 10;
    %load/vec4 v0x55557377a140_0;
    %and;
T_11.11;
    %flag_set/vec4 9;
    %flag_get/vec4 9;
    %jmp/0 T_11.10, 9;
    %load/vec4 v0x555573779c80_0;
    %nor/r;
    %and;
T_11.10;
    %flag_set/vec4 8;
    %jmp/0xz  T_11.8, 8;
    %load/vec4 v0x55557377a1e0_0;
    %parti/s 1, 0, 2;
    %flag_set/vec4 8;
    %jmp/0xz  T_11.12, 8;
    %load/vec4 v0x55557377a0a0_0;
    %parti/s 8, 0, 2;
    %load/vec4 v0x555573778a70_0;
    %pad/u 16;
    %ix/vec4 3;
    %ix/load 4, 0, 0; Constant delay
    %assign/vec4/a/d v0x555573779df0, 0, 4;
T_11.12 ;
    %load/vec4 v0x55557377a1e0_0;
    %parti/s 1, 1, 2;
    %flag_set/vec4 8;
    %jmp/0xz  T_11.14, 8;
    %load/vec4 v0x55557377a0a0_0;
    %parti/s 8, 8, 5;
    %load/vec4 v0x555573778a70_0;
    %pad/u 16;
    %ix/vec4 3;
    %ix/load 4, 8, 0; part off
    %ix/load 5, 0, 0; Constant delay
    %assign/vec4/a/d v0x555573779df0, 4, 5;
T_11.14 ;
    %load/vec4 v0x55557377a1e0_0;
    %parti/s 1, 2, 3;
    %flag_set/vec4 8;
    %jmp/0xz  T_11.16, 8;
    %load/vec4 v0x55557377a0a0_0;
    %parti/s 8, 16, 6;
    %load/vec4 v0x555573778a70_0;
    %pad/u 16;
    %ix/vec4 3;
    %ix/load 4, 16, 0; part off
    %ix/load 5, 0, 0; Constant delay
    %assign/vec4/a/d v0x555573779df0, 4, 5;
T_11.16 ;
    %load/vec4 v0x55557377a1e0_0;
    %parti/s 1, 3, 3;
    %flag_set/vec4 8;
    %jmp/0xz  T_11.18, 8;
    %load/vec4 v0x55557377a0a0_0;
    %parti/s 8, 24, 6;
    %load/vec4 v0x555573778a70_0;
    %pad/u 16;
    %ix/vec4 3;
    %ix/load 4, 24, 0; part off
    %ix/load 5, 0, 0; Constant delay
    %assign/vec4/a/d v0x555573779df0, 4, 5;
T_11.18 ;
    %pushi/vec4 1, 0, 1;
    %assign/vec4 v0x555573779c80_0, 0;
T_11.8 ;
    %load/vec4 v0x555573779c80_0;
    %flag_set/vec4 9;
    %flag_get/vec4 9;
    %jmp/0 T_11.22, 9;
    %load/vec4 v0x555573779280_0;
    %and;
T_11.22;
    %flag_set/vec4 8;
    %jmp/0xz  T_11.20, 8;
    %pushi/vec4 0, 0, 1;
    %assign/vec4 v0x555573779c80_0, 0;
    %pushi/vec4 0, 0, 1;
    %assign/vec4 v0x555573778ba0_0, 0;
    %pushi/vec4 0, 0, 1;
    %assign/vec4 v0x55557377a140_0, 0;
T_11.20 ;
T_11.1 ;
    %jmp T_11;
    .thread T_11;
    .scope S_0x555573777f20;
T_12 ;
    %wait E_0x55557369aff0;
    %load/vec4 v0x555573779f30_0;
    %nor/r;
    %flag_set/vec4 8;
    %jmp/0xz  T_12.0, 8;
    %pushi/vec4 0, 0, 1;
    %assign/vec4 v0x55557377a000_0, 0;
    %pushi/vec4 0, 0, 32;
    %assign/vec4 v0x555573779e90_0, 0;
    %jmp T_12.1;
T_12.0 ;
    %load/vec4 v0x555573778ea0_0;
    %flag_set/vec4 9;
    %flag_get/vec4 9;
    %jmp/0 T_12.4, 9;
    %load/vec4 v0x555573778e00_0;
    %and;
T_12.4;
    %flag_set/vec4 8;
    %jmp/0xz  T_12.2, 8;
    %load/vec4 v0x555573778c60_0;
    %parti/s 14, 2, 3;
    %pad/u 16;
    %ix/vec4 4;
    %load/vec4a v0x555573779df0, 4;
    %assign/vec4 v0x555573779e90_0, 0;
    %pushi/vec4 1, 0, 1;
    %assign/vec4 v0x55557377a000_0, 0;
T_12.2 ;
    %load/vec4 v0x55557377a000_0;
    %flag_set/vec4 9;
    %flag_get/vec4 9;
    %jmp/0 T_12.7, 9;
    %load/vec4 v0x5555737796d0_0;
    %and;
T_12.7;
    %flag_set/vec4 8;
    %jmp/0xz  T_12.5, 8;
    %pushi/vec4 0, 0, 1;
    %assign/vec4 v0x55557377a000_0, 0;
T_12.5 ;
T_12.1 ;
    %jmp T_12;
    .thread T_12;
    .scope S_0x55557377a500;
T_13 ;
    %end;
    .thread T_13;
    .scope S_0x55557377a500;
T_14 ;
    %fork t_6, S_0x55557377ab50;
    %jmp t_5;
    .scope S_0x55557377ab50;
t_6 ;
    %pushi/vec4 0, 0, 32;
    %store/vec4 v0x55557377ad50_0, 0, 32;
T_14.0 ; Top of for-loop
    %load/vec4 v0x55557377ad50_0;
    %cmpi/s 32768, 0, 32;
	  %jmp/0xz T_14.1, 5;
    %pushi/vec4 0, 0, 32;
    %ix/getv/s 4, v0x55557377ad50_0;
    %store/vec4a v0x55557377c500, 4, 0;
T_14.2 ; for-loop step statement
    ; show_stmt_assign_vector: Get l-value for compressed += operand
    %load/vec4 v0x55557377ad50_0;
    %pushi/vec4 1, 0, 32;
    %add;
    %cast2;
    %store/vec4 v0x55557377ad50_0, 0, 32;
    %jmp T_14.0;
T_14.1 ; for-loop exit label
    %end;
    .scope S_0x55557377a500;
t_5 %join;
    %end;
    .thread T_14;
    .scope S_0x55557377a500;
T_15 ;
    %wait E_0x55557369aff0;
    %load/vec4 v0x55557377c640_0;
    %nor/r;
    %flag_set/vec4 8;
    %jmp/0xz  T_15.0, 8;
    %pushi/vec4 0, 0, 1;
    %assign/vec4 v0x55557377b2b0_0, 0;
    %pushi/vec4 0, 0, 1;
    %assign/vec4 v0x55557377c870_0, 0;
    %pushi/vec4 0, 0, 1;
    %assign/vec4 v0x55557377c3c0_0, 0;
    %pushi/vec4 0, 0, 15;
    %assign/vec4 v0x55557377b180_0, 0;
    %pushi/vec4 0, 0, 32;
    %assign/vec4 v0x55557377c7d0_0, 0;
    %pushi/vec4 0, 0, 4;
    %assign/vec4 v0x55557377cb20_0, 0;
    %jmp T_15.1;
T_15.0 ;
    %load/vec4 v0x55557377b8f0_0;
    %flag_set/vec4 9;
    %flag_get/vec4 9;
    %jmp/0 T_15.4, 9;
    %load/vec4 v0x55557377b820_0;
    %and;
T_15.4;
    %flag_set/vec4 8;
    %jmp/0xz  T_15.2, 8;
    %load/vec4 v0x55557377b6b0_0;
    %parti/s 15, 2, 3;
    %assign/vec4 v0x55557377b180_0, 0;
    %pushi/vec4 1, 0, 1;
    %assign/vec4 v0x55557377b2b0_0, 0;
T_15.2 ;
    %load/vec4 v0x55557377c2f0_0;
    %flag_set/vec4 9;
    %flag_get/vec4 9;
    %jmp/0 T_15.7, 9;
    %load/vec4 v0x55557377c150_0;
    %and;
T_15.7;
    %flag_set/vec4 8;
    %jmp/0xz  T_15.5, 8;
    %load/vec4 v0x55557377c080_0;
    %assign/vec4 v0x55557377c7d0_0, 0;
    %load/vec4 v0x55557377c220_0;
    %assign/vec4 v0x55557377cb20_0, 0;
    %pushi/vec4 1, 0, 1;
    %assign/vec4 v0x55557377c870_0, 0;
T_15.5 ;
    %load/vec4 v0x55557377b2b0_0;
    %flag_set/vec4 10;
    %flag_get/vec4 10;
    %jmp/0 T_15.11, 10;
    %load/vec4 v0x55557377c870_0;
    %and;
T_15.11;
    %flag_set/vec4 9;
    %flag_get/vec4 9;
    %jmp/0 T_15.10, 9;
    %load/vec4 v0x55557377c3c0_0;
    %nor/r;
    %and;
T_15.10;
    %flag_set/vec4 8;
    %jmp/0xz  T_15.8, 8;
    %load/vec4 v0x55557377cb20_0;
    %parti/s 1, 0, 2;
    %flag_set/vec4 8;
    %jmp/0xz  T_15.12, 8;
    %load/vec4 v0x55557377c7d0_0;
    %parti/s 8, 0, 2;
    %load/vec4 v0x55557377b180_0;
    %pad/u 17;
    %ix/vec4 3;
    %ix/load 4, 0, 0; Constant delay
    %assign/vec4/a/d v0x55557377c500, 0, 4;
T_15.12 ;
    %load/vec4 v0x55557377cb20_0;
    %parti/s 1, 1, 2;
    %flag_set/vec4 8;
    %jmp/0xz  T_15.14, 8;
    %load/vec4 v0x55557377c7d0_0;
    %parti/s 8, 8, 5;
    %load/vec4 v0x55557377b180_0;
    %pad/u 17;
    %ix/vec4 3;
    %ix/load 4, 8, 0; part off
    %ix/load 5, 0, 0; Constant delay
    %assign/vec4/a/d v0x55557377c500, 4, 5;
T_15.14 ;
    %load/vec4 v0x55557377cb20_0;
    %parti/s 1, 2, 3;
    %flag_set/vec4 8;
    %jmp/0xz  T_15.16, 8;
    %load/vec4 v0x55557377c7d0_0;
    %parti/s 8, 16, 6;
    %load/vec4 v0x55557377b180_0;
    %pad/u 17;
    %ix/vec4 3;
    %ix/load 4, 16, 0; part off
    %ix/load 5, 0, 0; Constant delay
    %assign/vec4/a/d v0x55557377c500, 4, 5;
T_15.16 ;
    %load/vec4 v0x55557377cb20_0;
    %parti/s 1, 3, 3;
    %flag_set/vec4 8;
    %jmp/0xz  T_15.18, 8;
    %load/vec4 v0x55557377c7d0_0;
    %parti/s 8, 24, 6;
    %load/vec4 v0x55557377b180_0;
    %pad/u 17;
    %ix/vec4 3;
    %ix/load 4, 24, 0; part off
    %ix/load 5, 0, 0; Constant delay
    %assign/vec4/a/d v0x55557377c500, 4, 5;
T_15.18 ;
    %pushi/vec4 1, 0, 1;
    %assign/vec4 v0x55557377c3c0_0, 0;
T_15.8 ;
    %load/vec4 v0x55557377c3c0_0;
    %flag_set/vec4 9;
    %flag_get/vec4 9;
    %jmp/0 T_15.22, 9;
    %load/vec4 v0x55557377b9c0_0;
    %and;
T_15.22;
    %flag_set/vec4 8;
    %jmp/0xz  T_15.20, 8;
    %pushi/vec4 0, 0, 1;
    %assign/vec4 v0x55557377c3c0_0, 0;
    %pushi/vec4 0, 0, 1;
    %assign/vec4 v0x55557377b2b0_0, 0;
    %pushi/vec4 0, 0, 1;
    %assign/vec4 v0x55557377c870_0, 0;
T_15.20 ;
T_15.1 ;
    %jmp T_15;
    .thread T_15;
    .scope S_0x55557377a500;
T_16 ;
    %wait E_0x55557369aff0;
    %load/vec4 v0x55557377c640_0;
    %nor/r;
    %flag_set/vec4 8;
    %jmp/0xz  T_16.0, 8;
    %pushi/vec4 0, 0, 1;
    %assign/vec4 v0x55557377c730_0, 0;
    %pushi/vec4 0, 0, 32;
    %assign/vec4 v0x55557377c5a0_0, 0;
    %jmp T_16.1;
T_16.0 ;
    %load/vec4 v0x55557377b5e0_0;
    %flag_set/vec4 9;
    %flag_get/vec4 9;
    %jmp/0 T_16.4, 9;
    %load/vec4 v0x55557377b510_0;
    %and;
T_16.4;
    %flag_set/vec4 8;
    %jmp/0xz  T_16.2, 8;
    %load/vec4 v0x55557377b370_0;
    %parti/s 15, 2, 3;
    %pad/u 17;
    %ix/vec4 4;
    %load/vec4a v0x55557377c500, 4;
    %assign/vec4 v0x55557377c5a0_0, 0;
    %pushi/vec4 1, 0, 1;
    %assign/vec4 v0x55557377c730_0, 0;
T_16.2 ;
    %load/vec4 v0x55557377c730_0;
    %flag_set/vec4 9;
    %flag_get/vec4 9;
    %jmp/0 T_16.7, 9;
    %load/vec4 v0x55557377be10_0;
    %and;
T_16.7;
    %flag_set/vec4 8;
    %jmp/0xz  T_16.5, 8;
    %pushi/vec4 0, 0, 1;
    %assign/vec4 v0x55557377c730_0, 0;
T_16.5 ;
T_16.1 ;
    %jmp T_16;
    .thread T_16;
    .scope S_0x55557372b430;
T_17 ;
    %pushi/vec4 0, 0, 32;
    %store/vec4 v0x55557377e630_0, 0, 32;
    %pushi/vec4 0, 0, 32;
    %store/vec4 v0x55557377d620_0, 0, 32;
    %end;
    .thread T_17, $init;
    .scope S_0x55557372b430;
T_18 ;
    %wait E_0x55557369aff0;
    %load/vec4 v0x55557377e770_0;
    %nor/r;
    %flag_set/vec4 8;
    %jmp/0xz  T_18.0, 8;
    %pushi/vec4 0, 0, 1;
    %assign/vec4 v0x555573780f20_0, 0;
    %pushi/vec4 0, 0, 1;
    %assign/vec4 v0x555573781920_0, 0;
    %pushi/vec4 0, 0, 1;
    %assign/vec4 v0x555573781420_0, 0;
    %pushi/vec4 0, 0, 1;
    %assign/vec4 v0x5555737817e0_0, 0;
    %pushi/vec4 0, 0, 32;
    %assign/vec4 v0x555573781880_0, 0;
    %pushi/vec4 0, 0, 32;
    %assign/vec4 v0x555573781560_0, 0;
    %jmp T_18.1;
T_18.0 ;
    %load/vec4 v0x5555737811a0_0;
    %flag_set/vec4 9;
    %flag_get/vec4 9;
    %jmp/0 T_18.4, 9;
    %load/vec4 v0x555573781100_0;
    %and;
T_18.4;
    %flag_set/vec4 8;
    %jmp/0xz  T_18.2, 8;
    %pushi/vec4 1, 0, 1;
    %assign/vec4 v0x555573780f20_0, 0;
T_18.2 ;
    %load/vec4 v0x555573781ba0_0;
    %flag_set/vec4 9;
    %flag_get/vec4 9;
    %jmp/0 T_18.7, 9;
    %load/vec4 v0x555573781a60_0;
    %and;
T_18.7;
    %flag_set/vec4 8;
    %jmp/0xz  T_18.5, 8;
    %pushi/vec4 1, 0, 1;
    %assign/vec4 v0x555573781920_0, 0;
    %load/vec4 v0x5555737819c0_0;
    %assign/vec4 v0x555573781880_0, 0;
T_18.5 ;
    %load/vec4 v0x555573780f20_0;
    %flag_set/vec4 10;
    %flag_get/vec4 10;
    %jmp/0 T_18.11, 10;
    %load/vec4 v0x555573781920_0;
    %and;
T_18.11;
    %flag_set/vec4 9;
    %flag_get/vec4 9;
    %jmp/0 T_18.10, 9;
    %load/vec4 v0x555573781420_0;
    %nor/r;
    %and;
T_18.10;
    %flag_set/vec4 8;
    %jmp/0xz  T_18.8, 8;
    %pushi/vec4 1, 0, 1;
    %assign/vec4 v0x555573781420_0, 0;
T_18.8 ;
    %load/vec4 v0x555573781420_0;
    %flag_set/vec4 9;
    %flag_get/vec4 9;
    %jmp/0 T_18.14, 9;
    %load/vec4 v0x555573781240_0;
    %and;
T_18.14;
    %flag_set/vec4 8;
    %jmp/0xz  T_18.12, 8;
    %pushi/vec4 0, 0, 1;
    %assign/vec4 v0x555573781420_0, 0;
    %pushi/vec4 0, 0, 1;
    %assign/vec4 v0x555573780f20_0, 0;
    %pushi/vec4 0, 0, 1;
    %assign/vec4 v0x555573781920_0, 0;
T_18.12 ;
    %load/vec4 v0x555573780e80_0;
    %flag_set/vec4 9;
    %flag_get/vec4 9;
    %jmp/0 T_18.17, 9;
    %load/vec4 v0x555573780de0_0;
    %and;
T_18.17;
    %flag_set/vec4 8;
    %jmp/0xz  T_18.15, 8;
    %load/vec4 v0x555573781880_0;
    %assign/vec4 v0x555573781560_0, 0;
    %pushi/vec4 1, 0, 1;
    %assign/vec4 v0x5555737817e0_0, 0;
T_18.15 ;
    %load/vec4 v0x5555737817e0_0;
    %flag_set/vec4 9;
    %flag_get/vec4 9;
    %jmp/0 T_18.20, 9;
    %load/vec4 v0x555573781600_0;
    %and;
T_18.20;
    %flag_set/vec4 8;
    %jmp/0xz  T_18.18, 8;
    %pushi/vec4 0, 0, 1;
    %assign/vec4 v0x5555737817e0_0, 0;
T_18.18 ;
T_18.1 ;
    %jmp T_18;
    .thread T_18;
    .scope S_0x55557372b430;
T_19 ;
    %wait E_0x55557369aff0;
    %load/vec4 v0x55557377e770_0;
    %nor/r;
    %flag_set/vec4 8;
    %jmp/0xz  T_19.0, 8;
    %pushi/vec4 0, 0, 1;
    %assign/vec4 v0x555573781ec0_0, 0;
    %pushi/vec4 0, 0, 1;
    %assign/vec4 v0x555573782a70_0, 0;
    %pushi/vec4 0, 0, 1;
    %assign/vec4 v0x5555737824b0_0, 0;
    %pushi/vec4 0, 0, 1;
    %assign/vec4 v0x555573782930_0, 0;
    %pushi/vec4 0, 0, 32;
    %assign/vec4 v0x5555737829d0_0, 0;
    %pushi/vec4 0, 0, 32;
    %assign/vec4 v0x555573782620_0, 0;
    %jmp T_19.1;
T_19.0 ;
    %load/vec4 v0x555573782170_0;
    %flag_set/vec4 9;
    %flag_get/vec4 9;
    %jmp/0 T_19.4, 9;
    %load/vec4 v0x5555737820a0_0;
    %and;
T_19.4;
    %flag_set/vec4 8;
    %jmp/0xz  T_19.2, 8;
    %pushi/vec4 1, 0, 1;
    %assign/vec4 v0x555573781ec0_0, 0;
T_19.2 ;
    %load/vec4 v0x555573782d80_0;
    %flag_set/vec4 9;
    %flag_get/vec4 9;
    %jmp/0 T_19.7, 9;
    %load/vec4 v0x555573782be0_0;
    %and;
T_19.7;
    %flag_set/vec4 8;
    %jmp/0xz  T_19.5, 8;
    %pushi/vec4 1, 0, 1;
    %assign/vec4 v0x555573782a70_0, 0;
    %load/vec4 v0x555573782b10_0;
    %assign/vec4 v0x5555737829d0_0, 0;
T_19.5 ;
    %load/vec4 v0x555573781ec0_0;
    %flag_set/vec4 10;
    %flag_get/vec4 10;
    %jmp/0 T_19.11, 10;
    %load/vec4 v0x555573782a70_0;
    %and;
T_19.11;
    %flag_set/vec4 9;
    %flag_get/vec4 9;
    %jmp/0 T_19.10, 9;
    %load/vec4 v0x5555737824b0_0;
    %nor/r;
    %and;
T_19.10;
    %flag_set/vec4 8;
    %jmp/0xz  T_19.8, 8;
    %pushi/vec4 1, 0, 1;
    %assign/vec4 v0x5555737824b0_0, 0;
T_19.8 ;
    %load/vec4 v0x5555737824b0_0;
    %flag_set/vec4 9;
    %flag_get/vec4 9;
    %jmp/0 T_19.14, 9;
    %load/vec4 v0x555573782240_0;
    %and;
T_19.14;
    %flag_set/vec4 8;
    %jmp/0xz  T_19.12, 8;
    %pushi/vec4 0, 0, 1;
    %assign/vec4 v0x5555737824b0_0, 0;
    %pushi/vec4 0, 0, 1;
    %assign/vec4 v0x555573781ec0_0, 0;
    %pushi/vec4 0, 0, 1;
    %assign/vec4 v0x555573782a70_0, 0;
T_19.12 ;
    %load/vec4 v0x555573781e20_0;
    %flag_set/vec4 9;
    %flag_get/vec4 9;
    %jmp/0 T_19.17, 9;
    %load/vec4 v0x555573781d80_0;
    %and;
T_19.17;
    %flag_set/vec4 8;
    %jmp/0xz  T_19.15, 8;
    %load/vec4 v0x5555737829d0_0;
    %assign/vec4 v0x555573782620_0, 0;
    %pushi/vec4 1, 0, 1;
    %assign/vec4 v0x555573782930_0, 0;
T_19.15 ;
    %load/vec4 v0x555573782930_0;
    %flag_set/vec4 9;
    %flag_get/vec4 9;
    %jmp/0 T_19.20, 9;
    %load/vec4 v0x5555737826c0_0;
    %and;
T_19.20;
    %flag_set/vec4 8;
    %jmp/0xz  T_19.18, 8;
    %pushi/vec4 0, 0, 1;
    %assign/vec4 v0x555573782930_0, 0;
T_19.18 ;
T_19.1 ;
    %jmp T_19;
    .thread T_19;
    .scope S_0x55557372b430;
T_20 ;
    %pushi/vec4 0, 0, 1;
    %store/vec4 v0x55557377d580_0, 0, 1;
T_20.0 ;
    %delay 5000, 0;
    %load/vec4 v0x55557377d580_0;
    %inv;
    %store/vec4 v0x55557377d580_0, 0, 1;
    %jmp T_20.0;
T_20.1 ;
    %end;
    .thread T_20;
    .scope S_0x55557372b430;
T_21 ;
    %vpi_call/w 3 385 "$dumpfile", "sim/axi_interconnect_tb.vcd" {0 0 0};
    %vpi_call/w 3 386 "$dumpvars", 32'sb00000000000000000000000000000000, S_0x55557372b430 {0 0 0};
    %pushi/vec4 0, 0, 1;
    %store/vec4 v0x55557377dc70_0, 0, 1;
    %pushi/vec4 0, 0, 32;
    %store/vec4 v0x55557377da00_0, 0, 32;
    %pushi/vec4 0, 0, 3;
    %store/vec4 v0x55557377dad0_0, 0, 3;
    %pushi/vec4 0, 0, 1;
    %store/vec4 v0x55557377e560_0, 0, 1;
    %pushi/vec4 0, 0, 32;
    %store/vec4 v0x55557377e2f0_0, 0, 32;
    %pushi/vec4 0, 0, 4;
    %store/vec4 v0x55557377e490_0, 0, 4;
    %pushi/vec4 0, 0, 1;
    %store/vec4 v0x55557377dd40_0, 0, 1;
    %pushi/vec4 0, 0, 1;
    %store/vec4 v0x55557377d930_0, 0, 1;
    %pushi/vec4 0, 0, 32;
    %store/vec4 v0x55557377d700_0, 0, 32;
    %pushi/vec4 0, 0, 3;
    %store/vec4 v0x55557377d7c0_0, 0, 3;
    %pushi/vec4 0, 0, 1;
    %store/vec4 v0x55557377e080_0, 0, 1;
    %pushi/vec4 0, 0, 1;
    %store/vec4 v0x55557377e770_0, 0, 1;
    %delay 100000, 0;
    %pushi/vec4 1, 0, 1;
    %store/vec4 v0x55557377e770_0, 0, 1;
    %pushi/vec4 3, 0, 32;
T_21.0 %dup/vec4;
    %cmpi/s 0, 0, 32;
    %jmp/1xz T_21.1, 5;
    %jmp/1 T_21.1, 4;
    %subi 1, 0, 32;
    %wait E_0x55557369aff0;
    %jmp T_21.0;
T_21.1 ;
    %pop/vec4 1;
    %vpi_call/w 3 400 "$display", "\000" {0 0 0};
    %vpi_call/w 3 401 "$display", "========================================" {0 0 0};
    %vpi_call/w 3 402 "$display", "  AXI Interconnect 4-Slave Testbench" {0 0 0};
    %vpi_call/w 3 403 "$display", "========================================" {0 0 0};
    %vpi_call/w 3 404 "$display", "\000" {0 0 0};
    %vpi_call/w 3 409 "$display", "--- Test 1: Write/Read Slave 0 @ 0x0000_1000 ---" {0 0 0};
    %pushi/vec4 4096, 0, 32;
    %store/vec4 v0x5555736f2a20_0, 0, 32;
    %pushi/vec4 3735928559, 0, 32;
    %store/vec4 v0x5555736f32f0_0, 0, 32;
    %pushi/vec4 15, 0, 4;
    %store/vec4 v0x5555736f39d0_0, 0, 4;
    %fork TD_axi_interconnect_tb.axi_write, S_0x55557376a740;
    %join;
    %pushi/vec4 4096, 0, 32;
    %store/vec4 v0x555573711b10_0, 0, 32;
    %fork TD_axi_interconnect_tb.axi_read, S_0x555573735f90;
    %join;
    %load/vec4 v0x5555736f1aa0_0;
    %store/vec4 v0x55557377e6d0_0, 0, 32;
    %load/vec4 v0x55557377e6d0_0;
    %cmpi/e 3735928559, 0, 32;
    %jmp/0xz  T_21.2, 6;
    %vpi_call/w 3 413 "$display", "[PASS] S0 read = 0x%08h", v0x55557377e6d0_0 {0 0 0};
    %load/vec4 v0x55557377e630_0;
    %addi 1, 0, 32;
    %store/vec4 v0x55557377e630_0, 0, 32;
    %jmp T_21.3;
T_21.2 ;
    %vpi_call/w 3 416 "$display", "[FAIL] S0 expected 0xDEADBEEF, got 0x%08h", v0x55557377e6d0_0 {0 0 0};
    %load/vec4 v0x55557377d620_0;
    %addi 1, 0, 32;
    %store/vec4 v0x55557377d620_0, 0, 32;
T_21.3 ;
    %vpi_call/w 3 423 "$display", "\000" {0 0 0};
    %vpi_call/w 3 424 "$display", "--- Test 2: Write/Read Slave 1 @ 0x0001_0100 ---" {0 0 0};
    %pushi/vec4 65792, 0, 32;
    %store/vec4 v0x5555736f2a20_0, 0, 32;
    %pushi/vec4 3405691582, 0, 32;
    %store/vec4 v0x5555736f32f0_0, 0, 32;
    %pushi/vec4 15, 0, 4;
    %store/vec4 v0x5555736f39d0_0, 0, 4;
    %fork TD_axi_interconnect_tb.axi_write, S_0x55557376a740;
    %join;
    %pushi/vec4 65792, 0, 32;
    %store/vec4 v0x555573711b10_0, 0, 32;
    %fork TD_axi_interconnect_tb.axi_read, S_0x555573735f90;
    %join;
    %load/vec4 v0x5555736f1aa0_0;
    %store/vec4 v0x55557377e6d0_0, 0, 32;
    %load/vec4 v0x55557377e6d0_0;
    %cmpi/e 3405691582, 0, 32;
    %jmp/0xz  T_21.4, 6;
    %vpi_call/w 3 428 "$display", "[PASS] S1 read = 0x%08h", v0x55557377e6d0_0 {0 0 0};
    %load/vec4 v0x55557377e630_0;
    %addi 1, 0, 32;
    %store/vec4 v0x55557377e630_0, 0, 32;
    %jmp T_21.5;
T_21.4 ;
    %vpi_call/w 3 431 "$display", "[FAIL] S1 expected 0xCAFEBABE, got 0x%08h", v0x55557377e6d0_0 {0 0 0};
    %load/vec4 v0x55557377d620_0;
    %addi 1, 0, 32;
    %store/vec4 v0x55557377d620_0, 0, 32;
T_21.5 ;
    %vpi_call/w 3 438 "$display", "\000" {0 0 0};
    %vpi_call/w 3 439 "$display", "--- Test 3: Write/Read Slave 2 @ 0x4000_0020 ---" {0 0 0};
    %pushi/vec4 1073741856, 0, 32;
    %store/vec4 v0x5555736f2a20_0, 0, 32;
    %pushi/vec4 305419896, 0, 32;
    %store/vec4 v0x5555736f32f0_0, 0, 32;
    %pushi/vec4 15, 0, 4;
    %store/vec4 v0x5555736f39d0_0, 0, 4;
    %fork TD_axi_interconnect_tb.axi_write, S_0x55557376a740;
    %join;
    %pushi/vec4 1073741856, 0, 32;
    %store/vec4 v0x555573711b10_0, 0, 32;
    %fork TD_axi_interconnect_tb.axi_read, S_0x555573735f90;
    %join;
    %load/vec4 v0x5555736f1aa0_0;
    %store/vec4 v0x55557377e6d0_0, 0, 32;
    %load/vec4 v0x55557377e6d0_0;
    %cmpi/e 305419896, 0, 32;
    %jmp/0xz  T_21.6, 6;
    %vpi_call/w 3 443 "$display", "[PASS] S2 read = 0x%08h", v0x55557377e6d0_0 {0 0 0};
    %load/vec4 v0x55557377e630_0;
    %addi 1, 0, 32;
    %store/vec4 v0x55557377e630_0, 0, 32;
    %jmp T_21.7;
T_21.6 ;
    %vpi_call/w 3 446 "$display", "[FAIL] S2 expected 0x12345678, got 0x%08h", v0x55557377e6d0_0 {0 0 0};
    %load/vec4 v0x55557377d620_0;
    %addi 1, 0, 32;
    %store/vec4 v0x55557377d620_0, 0, 32;
T_21.7 ;
    %vpi_call/w 3 453 "$display", "\000" {0 0 0};
    %vpi_call/w 3 454 "$display", "--- Test 4: Write/Read Slave 3 @ 0x2000_0000 ---" {0 0 0};
    %pushi/vec4 536870912, 0, 32;
    %store/vec4 v0x5555736f2a20_0, 0, 32;
    %pushi/vec4 195948557, 0, 32;
    %store/vec4 v0x5555736f32f0_0, 0, 32;
    %pushi/vec4 15, 0, 4;
    %store/vec4 v0x5555736f39d0_0, 0, 4;
    %fork TD_axi_interconnect_tb.axi_write, S_0x55557376a740;
    %join;
    %pushi/vec4 536870912, 0, 32;
    %store/vec4 v0x555573711b10_0, 0, 32;
    %fork TD_axi_interconnect_tb.axi_read, S_0x555573735f90;
    %join;
    %load/vec4 v0x5555736f1aa0_0;
    %store/vec4 v0x55557377e6d0_0, 0, 32;
    %load/vec4 v0x55557377e6d0_0;
    %cmpi/e 195948557, 0, 32;
    %jmp/0xz  T_21.8, 6;
    %vpi_call/w 3 458 "$display", "[PASS] S3 read = 0x%08h", v0x55557377e6d0_0 {0 0 0};
    %load/vec4 v0x55557377e630_0;
    %addi 1, 0, 32;
    %store/vec4 v0x55557377e630_0, 0, 32;
    %jmp T_21.9;
T_21.8 ;
    %vpi_call/w 3 461 "$display", "[FAIL] S3 expected 0x0BADF00D, got 0x%08h", v0x55557377e6d0_0 {0 0 0};
    %load/vec4 v0x55557377d620_0;
    %addi 1, 0, 32;
    %store/vec4 v0x55557377d620_0, 0, 32;
T_21.9 ;
    %vpi_call/w 3 468 "$display", "\000" {0 0 0};
    %vpi_call/w 3 469 "$display", "--- Test 5: Decode error @ 0x5000_0000 ---" {0 0 0};
    %wait E_0x55557369aff0;
    %pushi/vec4 1, 0, 1;
    %store/vec4 v0x55557377dc70_0, 0, 1;
    %pushi/vec4 1342177280, 0, 32;
    %store/vec4 v0x55557377da00_0, 0, 32;
    %pushi/vec4 0, 0, 3;
    %store/vec4 v0x55557377dad0_0, 0, 3;
    %pushi/vec4 1, 0, 1;
    %store/vec4 v0x55557377e560_0, 0, 1;
    %pushi/vec4 2779096485, 0, 32;
    %store/vec4 v0x55557377e2f0_0, 0, 32;
    %pushi/vec4 15, 0, 4;
    %store/vec4 v0x55557377e490_0, 0, 4;
    %pushi/vec4 0, 0, 1;
    %store/vec4 v0x55557377dd40_0, 0, 1;
    %fork t_8, S_0x55557372b430;
    %fork t_9, S_0x55557372b430;
    %join;
    %join;
    %jmp t_7;
t_8 ;
T_21.10 ;
    %load/vec4 v0x55557377dba0_0;
    %flag_set/vec4 8;
    %flag_get/vec4 8;
    %jmp/0 T_21.12, 8;
    %load/vec4 v0x55557377dc70_0;
    %and;
T_21.12;
    %cmpi/ne 1, 0, 1;
    %jmp/0xz T_21.11, 6;
    %wait E_0x555573758850;
    %jmp T_21.10;
T_21.11 ;
    %wait E_0x55557369aff0;
    %delay 1000, 0;
    %pushi/vec4 0, 0, 1;
    %store/vec4 v0x55557377dc70_0, 0, 1;
    %end;
t_9 ;
T_21.13 ;
    %load/vec4 v0x55557377e3c0_0;
    %flag_set/vec4 8;
    %flag_get/vec4 8;
    %jmp/0 T_21.15, 8;
    %load/vec4 v0x55557377e560_0;
    %and;
T_21.15;
    %cmpi/ne 1, 0, 1;
    %jmp/0xz T_21.14, 6;
    %wait E_0x555573758810;
    %jmp T_21.13;
T_21.14 ;
    %wait E_0x55557369aff0;
    %delay 1000, 0;
    %pushi/vec4 0, 0, 1;
    %store/vec4 v0x55557377e560_0, 0, 1;
    %end;
    .scope S_0x55557372b430;
t_7 ;
    %wait E_0x55557369aff0;
    %pushi/vec4 1, 0, 1;
    %store/vec4 v0x55557377dd40_0, 0, 1;
T_21.16 ;
    %load/vec4 v0x55557377dee0_0;
    %cmpi/ne 1, 0, 1;
    %jmp/0xz T_21.17, 6;
    %wait E_0x55557361e9e0;
    %jmp T_21.16;
T_21.17 ;
    %load/vec4 v0x55557377de10_0;
    %cmpi/e 3, 0, 2;
    %jmp/0xz  T_21.18, 6;
    %vpi_call/w 3 490 "$display", "[PASS] Invalid write BRESP = DECERR" {0 0 0};
    %load/vec4 v0x55557377e630_0;
    %addi 1, 0, 32;
    %store/vec4 v0x55557377e630_0, 0, 32;
    %jmp T_21.19;
T_21.18 ;
    %vpi_call/w 3 493 "$display", "[FAIL] Invalid write BRESP expected DECERR, got 0x%0h", v0x55557377de10_0 {0 0 0};
    %load/vec4 v0x55557377d620_0;
    %addi 1, 0, 32;
    %store/vec4 v0x55557377d620_0, 0, 32;
T_21.19 ;
    %wait E_0x55557369aff0;
    %delay 1000, 0;
    %pushi/vec4 0, 0, 1;
    %store/vec4 v0x55557377dd40_0, 0, 1;
    %wait E_0x55557369aff0;
    %pushi/vec4 1, 0, 1;
    %store/vec4 v0x55557377d930_0, 0, 1;
    %pushi/vec4 1342177280, 0, 32;
    %store/vec4 v0x55557377d700_0, 0, 32;
    %pushi/vec4 0, 0, 3;
    %store/vec4 v0x55557377d7c0_0, 0, 3;
    %pushi/vec4 0, 0, 1;
    %store/vec4 v0x55557377e080_0, 0, 1;
T_21.20 ;
    %load/vec4 v0x55557377d860_0;
    %flag_set/vec4 8;
    %flag_get/vec4 8;
    %jmp/0 T_21.22, 8;
    %load/vec4 v0x55557377d930_0;
    %and;
T_21.22;
    %cmpi/ne 1, 0, 1;
    %jmp/0xz T_21.21, 6;
    %wait E_0x55557369af50;
    %jmp T_21.20;
T_21.21 ;
    %wait E_0x55557369aff0;
    %delay 1000, 0;
    %pushi/vec4 0, 0, 1;
    %store/vec4 v0x55557377d930_0, 0, 1;
    %wait E_0x55557369aff0;
    %pushi/vec4 1, 0, 1;
    %store/vec4 v0x55557377e080_0, 0, 1;
T_21.23 ;
    %load/vec4 v0x55557377e220_0;
    %cmpi/ne 1, 0, 1;
    %jmp/0xz T_21.24, 6;
    %wait E_0x55557369afb0;
    %jmp T_21.23;
T_21.24 ;
    %load/vec4 v0x55557377e150_0;
    %cmpi/e 3, 0, 2;
    %jmp/0xz  T_21.25, 6;
    %vpi_call/w 3 516 "$display", "[PASS] Invalid read RRESP = DECERR" {0 0 0};
    %load/vec4 v0x55557377e630_0;
    %addi 1, 0, 32;
    %store/vec4 v0x55557377e630_0, 0, 32;
    %jmp T_21.26;
T_21.25 ;
    %vpi_call/w 3 519 "$display", "[FAIL] Invalid read RRESP expected DECERR, got 0x%0h", v0x55557377e150_0 {0 0 0};
    %load/vec4 v0x55557377d620_0;
    %addi 1, 0, 32;
    %store/vec4 v0x55557377d620_0, 0, 32;
T_21.26 ;
    %wait E_0x55557369aff0;
    %delay 1000, 0;
    %pushi/vec4 0, 0, 1;
    %store/vec4 v0x55557377e080_0, 0, 1;
    %vpi_call/w 3 529 "$display", "\000" {0 0 0};
    %vpi_call/w 3 530 "$display", "--- Test 6: Alternating S0/S1/S2/S3 transactions ---" {0 0 0};
    %pushi/vec4 8192, 0, 32;
    %store/vec4 v0x5555736f2a20_0, 0, 32;
    %pushi/vec4 2863311530, 0, 32;
    %store/vec4 v0x5555736f32f0_0, 0, 32;
    %pushi/vec4 15, 0, 4;
    %store/vec4 v0x5555736f39d0_0, 0, 4;
    %fork TD_axi_interconnect_tb.axi_write, S_0x55557376a740;
    %join;
    %pushi/vec4 73728, 0, 32;
    %store/vec4 v0x5555736f2a20_0, 0, 32;
    %pushi/vec4 3149642683, 0, 32;
    %store/vec4 v0x5555736f32f0_0, 0, 32;
    %pushi/vec4 15, 0, 4;
    %store/vec4 v0x5555736f39d0_0, 0, 4;
    %fork TD_axi_interconnect_tb.axi_write, S_0x55557376a740;
    %join;
    %pushi/vec4 1073745920, 0, 32;
    %store/vec4 v0x5555736f2a20_0, 0, 32;
    %pushi/vec4 3435973836, 0, 32;
    %store/vec4 v0x5555736f32f0_0, 0, 32;
    %pushi/vec4 15, 0, 4;
    %store/vec4 v0x5555736f39d0_0, 0, 4;
    %fork TD_axi_interconnect_tb.axi_write, S_0x55557376a740;
    %join;
