#! /home/kishor/vlsi_project/oss-cad-suite-linux-x64-20260105/oss-cad-suite/bin/vvp
:ivl_version "13.0 (devel)" "(s20251012-47-ge5943047d)";
:ivl_delay_selection "TYPICAL";
:vpi_time_precision - 12;
:vpi_module "/home/kishor/vlsi_project/oss-cad-suite-linux-x64-20260105/oss-cad-suite/lib/ivl/system.vpi";
:vpi_module "/home/kishor/vlsi_project/oss-cad-suite-linux-x64-20260105/oss-cad-suite/lib/ivl/vhdl_sys.vpi";
:vpi_module "/home/kishor/vlsi_project/oss-cad-suite-linux-x64-20260105/oss-cad-suite/lib/ivl/vhdl_textio.vpi";
:vpi_module "/home/kishor/vlsi_project/oss-cad-suite-linux-x64-20260105/oss-cad-suite/lib/ivl/v2005_math.vpi";
:vpi_module "/home/kishor/vlsi_project/oss-cad-suite-linux-x64-20260105/oss-cad-suite/lib/ivl/va_math.vpi";
:vpi_module "/home/kishor/vlsi_project/oss-cad-suite-linux-x64-20260105/oss-cad-suite/lib/ivl/v2009.vpi";
S_0x5555827b74f0 .scope package, "$unit" "$unit" 2 1;
 .timescale 0 0;
S_0x5555827b04f0 .scope module, "soc_core" "soc_core" 3 1;
 .timescale 0 0;
    .port_info 0 /INPUT 1 "clk_i";
    .port_info 1 /INPUT 1 "rst_ni";
P_0x5555827aaa30 .param/str "MEM_INIT_FILE" 0 3 2, "\000";
v0x55558288e550_0 .net "apb_paddr", 31 0, v0x5555828595b0_0;  1 drivers
v0x55558288e630_0 .net "apb_penable", 0 0, v0x555582859650_0;  1 drivers
v0x55558288e740_0 .net "apb_pprot", 2 0, v0x5555828591a0_0;  1 drivers
v0x55558288e830_0 .net "apb_prdata", 31 0, v0x5555827a8df0_0;  1 drivers
v0x55558288e920_0 .net "apb_pready", 0 0, v0x5555827a5a80_0;  1 drivers
v0x55558288ea60_0 .net "apb_psel", 0 0, v0x55558285f760_0;  1 drivers
v0x55558288eb50_0 .net "apb_pslverr", 0 0, v0x5555827baa50_0;  1 drivers
v0x55558288ec40_0 .net "apb_pstrb", 3 0, v0x55558285f380_0;  1 drivers
v0x55558288ed50_0 .net "apb_pwdata", 31 0, v0x55558285ef00_0;  1 drivers
v0x55558288ee10_0 .net "apb_pwrite", 0 0, v0x55558285efd0_0;  1 drivers
o0x7f5fca953018 .functor BUFZ 1, c4<z>; HiZ drive
v0x55558288ef00_0 .net "clk_i", 0 0, o0x7f5fca953018;  0 drivers
v0x55558288efa0_0 .net "cpu_eoi", 31 0, v0x55558287dd00_0;  1 drivers
L_0x7f5fca4d0018 .functor BUFT 1, C4<00000000000000000000000000000000>, C4<0>, C4<0>, C4<0>;
v0x55558288f0b0_0 .net "cpu_irq", 31 0, L_0x7f5fca4d0018;  1 drivers
v0x55558288f1c0_0 .net "mem_axi_araddr", 31 0, L_0x5555828a7f70;  1 drivers
v0x55558288f280_0 .net "mem_axi_arprot", 2 0, L_0x5555828a8140;  1 drivers
v0x55558288f340_0 .net "mem_axi_arready", 0 0, v0x555582867d60_0;  1 drivers
v0x55558288f3e0_0 .net "mem_axi_arvalid", 0 0, L_0x5555827116b0;  1 drivers
v0x55558288f480_0 .net "mem_axi_awaddr", 31 0, L_0x5555826f2f00;  1 drivers
L_0x7f5fca4d0498 .functor BUFT 1, C4<000>, C4<0>, C4<0>, C4<0>;
v0x55558288f540_0 .net "mem_axi_awprot", 2 0, L_0x7f5fca4d0498;  1 drivers
v0x55558288f600_0 .net "mem_axi_awready", 0 0, v0x555582867fe0_0;  1 drivers
v0x55558288f6a0_0 .net "mem_axi_awvalid", 0 0, L_0x5555826f30f0;  1 drivers
v0x55558288f740_0 .net "mem_axi_bready", 0 0, L_0x5555828a8cb0;  1 drivers
v0x55558288f7e0_0 .net "mem_axi_bresp", 1 0, v0x5555828681c0_0;  1 drivers
v0x55558288f8a0_0 .net "mem_axi_bvalid", 0 0, v0x555582868280_0;  1 drivers
v0x55558288f940_0 .net "mem_axi_rdata", 31 0, v0x555582868340_0;  1 drivers
v0x55558288f9e0_0 .net "mem_axi_rready", 0 0, L_0x5555828a8b30;  1 drivers
v0x55558288fa80_0 .net "mem_axi_rresp", 1 0, v0x5555828684e0_0;  1 drivers
v0x55558288fb40_0 .net "mem_axi_rvalid", 0 0, v0x5555828685c0_0;  1 drivers
v0x55558288fbe0_0 .net "mem_axi_wdata", 31 0, L_0x5555828a85b0;  1 drivers
v0x55558288fc80_0 .net "mem_axi_wready", 0 0, v0x555582868760_0;  1 drivers
v0x55558288fd20_0 .net "mem_axi_wstrb", 3 0, L_0x5555828a86b0;  1 drivers
v0x55558288fde0_0 .net "mem_axi_wvalid", 0 0, L_0x5555828a8460;  1 drivers
v0x55558288fe80_0 .net "paddr_debug", 31 0, L_0x5555828b64a0;  1 drivers
v0x555582890150_0 .net "paddr_gpio", 31 0, L_0x5555828b55f0;  1 drivers
v0x5555828901f0_0 .net "paddr_spi", 31 0, L_0x5555828b5db0;  1 drivers
v0x555582890290_0 .net "paddr_timer", 31 0, L_0x5555828b5340;  1 drivers
v0x555582890330_0 .net "paddr_uart", 31 0, L_0x5555828b4e80;  1 drivers
v0x5555828903d0_0 .net "penable_debug", 0 0, L_0x5555828b6240;  1 drivers
v0x555582890470_0 .net "penable_gpio", 0 0, L_0x5555828b5660;  1 drivers
v0x555582890510_0 .net "penable_spi", 0 0, L_0x5555828b5b80;  1 drivers
v0x5555828905b0_0 .net "penable_timer", 0 0, L_0x5555828b51c0;  1 drivers
v0x555582890650_0 .net "penable_uart", 0 0, L_0x5555828b4d00;  1 drivers
v0x5555828906f0_0 .net "pprot_debug", 2 0, L_0x5555828b67d0;  1 drivers
v0x5555828907c0_0 .net "pprot_gpio", 2 0, L_0x5555828b5a20;  1 drivers
v0x555582890890_0 .net "pprot_spi", 2 0, L_0x5555828b60b0;  1 drivers
v0x555582890960_0 .net "pprot_timer", 2 0, L_0x5555828b54f0;  1 drivers
v0x555582890a30_0 .net "pprot_uart", 2 0, L_0x5555828b50c0;  1 drivers
L_0x7f5fca4d03c0 .functor BUFT 1, C4<00000000000000000000000000000000>, C4<0>, C4<0>, C4<0>;
v0x555582890b00_0 .net "prdata_debug", 31 0, L_0x7f5fca4d03c0;  1 drivers
L_0x7f5fca4d0210 .functor BUFT 1, C4<00000000000000000000000000000000>, C4<0>, C4<0>, C4<0>;
v0x555582890bd0_0 .net "prdata_gpio", 31 0, L_0x7f5fca4d0210;  1 drivers
L_0x7f5fca4d02e8 .functor BUFT 1, C4<00000000000000000000000000000000>, C4<0>, C4<0>, C4<0>;
v0x555582890ca0_0 .net "prdata_spi", 31 0, L_0x7f5fca4d02e8;  1 drivers
L_0x7f5fca4d0138 .functor BUFT 1, C4<00000000000000000000000000000000>, C4<0>, C4<0>, C4<0>;
v0x555582890d70_0 .net "prdata_timer", 31 0, L_0x7f5fca4d0138;  1 drivers
L_0x7f5fca4d0060 .functor BUFT 1, C4<00000000000000000000000000000000>, C4<0>, C4<0>, C4<0>;
v0x555582890e40_0 .net "prdata_uart", 31 0, L_0x7f5fca4d0060;  1 drivers
L_0x7f5fca4d0408 .functor BUFT 1, C4<1>, C4<0>, C4<0>, C4<0>;
v0x555582890f10_0 .net "pready_debug", 0 0, L_0x7f5fca4d0408;  1 drivers
L_0x7f5fca4d0258 .functor BUFT 1, C4<1>, C4<0>, C4<0>, C4<0>;
v0x555582890fe0_0 .net "pready_gpio", 0 0, L_0x7f5fca4d0258;  1 drivers
L_0x7f5fca4d0330 .functor BUFT 1, C4<1>, C4<0>, C4<0>, C4<0>;
v0x5555828910b0_0 .net "pready_spi", 0 0, L_0x7f5fca4d0330;  1 drivers
L_0x7f5fca4d0180 .functor BUFT 1, C4<1>, C4<0>, C4<0>, C4<0>;
v0x555582891180_0 .net "pready_timer", 0 0, L_0x7f5fca4d0180;  1 drivers
L_0x7f5fca4d00a8 .functor BUFT 1, C4<1>, C4<0>, C4<0>, C4<0>;
v0x555582891250_0 .net "pready_uart", 0 0, L_0x7f5fca4d00a8;  1 drivers
v0x555582891320_0 .net "psel_debug", 0 0, v0x5555827a5280_0;  1 drivers
v0x5555828913c0_0 .net "psel_gpio", 0 0, v0x5555827a5340_0;  1 drivers
v0x555582891490_0 .net "psel_spi", 0 0, v0x5555827a4f60_0;  1 drivers
v0x555582891560_0 .net "psel_timer", 0 0, v0x5555827a4a30_0;  1 drivers
v0x555582891630_0 .net "psel_uart", 0 0, v0x5555827a4af0_0;  1 drivers
L_0x7f5fca4d0450 .functor BUFT 1, C4<0>, C4<0>, C4<0>, C4<0>;
v0x555582891700_0 .net "pslverr_debug", 0 0, L_0x7f5fca4d0450;  1 drivers
L_0x7f5fca4d02a0 .functor BUFT 1, C4<0>, C4<0>, C4<0>, C4<0>;
v0x5555828917d0_0 .net "pslverr_gpio", 0 0, L_0x7f5fca4d02a0;  1 drivers
L_0x7f5fca4d0378 .functor BUFT 1, C4<0>, C4<0>, C4<0>, C4<0>;
v0x5555828918a0_0 .net "pslverr_spi", 0 0, L_0x7f5fca4d0378;  1 drivers
L_0x7f5fca4d01c8 .functor BUFT 1, C4<0>, C4<0>, C4<0>, C4<0>;
v0x555582891940_0 .net "pslverr_timer", 0 0, L_0x7f5fca4d01c8;  1 drivers
L_0x7f5fca4d00f0 .functor BUFT 1, C4<0>, C4<0>, C4<0>, C4<0>;
v0x555582891a10_0 .net "pslverr_uart", 0 0, L_0x7f5fca4d00f0;  1 drivers
v0x555582891ae0_0 .net "pstrb_debug", 3 0, L_0x5555828b6710;  1 drivers
v0x555582891bb0_0 .net "pstrb_gpio", 3 0, L_0x5555828b5960;  1 drivers
v0x555582891c80_0 .net "pstrb_spi", 3 0, L_0x5555828b5ff0;  1 drivers
v0x555582891d50_0 .net "pstrb_timer", 3 0, L_0x5555828b5480;  1 drivers
v0x555582891e20_0 .net "pstrb_uart", 3 0, L_0x5555828b5000;  1 drivers
v0x555582891ef0_0 .net "pwdata_debug", 31 0, L_0x5555828b6560;  1 drivers
v0x555582891f90_0 .net "pwdata_gpio", 31 0, L_0x5555828b5810;  1 drivers
v0x555582892060_0 .net "pwdata_spi", 31 0, L_0x5555828b5e70;  1 drivers
v0x555582892130_0 .net "pwdata_timer", 31 0, L_0x5555828b53b0;  1 drivers
v0x555582892200_0 .net "pwdata_uart", 31 0, L_0x5555828b4f40;  1 drivers
v0x5555828922d0_0 .net "pwrite_debug", 0 0, L_0x5555828b6300;  1 drivers
v0x5555828923a0_0 .net "pwrite_gpio", 0 0, L_0x5555828b56d0;  1 drivers
v0x555582892470_0 .net "pwrite_spi", 0 0, L_0x5555828b5c40;  1 drivers
v0x555582892510_0 .net "pwrite_timer", 0 0, L_0x5555828b5280;  1 drivers
v0x5555828925e0_0 .net "pwrite_uart", 0 0, L_0x5555828b4dc0;  1 drivers
o0x7f5fca953b88 .functor BUFZ 1, c4<z>; HiZ drive
v0x5555828926b0_0 .net "rst_ni", 0 0, o0x7f5fca953b88;  0 drivers
v0x555582892750_0 .net "s0_araddr", 31 0, v0x555582869640_0;  1 drivers
v0x555582892820_0 .net "s0_arprot", 2 0, v0x555582869720_0;  1 drivers
v0x555582892910_0 .net "s0_arready", 0 0, L_0x5555828b2a70;  1 drivers
v0x555582892a00_0 .net "s0_arvalid", 0 0, v0x5555828698c0_0;  1 drivers
v0x555582892af0_0 .net "s0_awaddr", 31 0, v0x555582869980_0;  1 drivers
v0x555582892b90_0 .net "s0_awprot", 2 0, v0x555582869a60_0;  1 drivers
v0x555582892c80_0 .net "s0_awready", 0 0, L_0x5555828b2650;  1 drivers
v0x555582892d70_0 .net "s0_awvalid", 0 0, v0x555582869c00_0;  1 drivers
v0x555582892e60_0 .net "s0_bready", 0 0, v0x555582869cc0_0;  1 drivers
L_0x7f5fca4d16e0 .functor BUFT 1, C4<00>, C4<0>, C4<0>, C4<0>;
v0x555582892f50_0 .net "s0_bresp", 1 0, L_0x7f5fca4d16e0;  1 drivers
v0x555582893040_0 .net "s0_bvalid", 0 0, L_0x5555828b2a00;  1 drivers
v0x555582893130_0 .net "s0_rdata", 31 0, L_0x5555828b2bd0;  1 drivers
v0x555582893220_0 .net "s0_rready", 0 0, v0x55558286a000_0;  1 drivers
L_0x7f5fca4d1728 .functor BUFT 1, C4<00>, C4<0>, C4<0>, C4<0>;
v0x555582893310_0 .net "s0_rresp", 1 0, L_0x7f5fca4d1728;  1 drivers
v0x555582893400_0 .net "s0_rvalid", 0 0, L_0x5555828b2b10;  1 drivers
v0x5555828934f0_0 .net "s0_wdata", 31 0, v0x55558286a260_0;  1 drivers
v0x5555828935e0_0 .net "s0_wready", 0 0, L_0x5555828b28f0;  1 drivers
v0x5555828936d0_0 .net "s0_wstrb", 3 0, v0x55558286a400_0;  1 drivers
v0x5555828937c0_0 .net "s0_wvalid", 0 0, v0x55558286a4e0_0;  1 drivers
v0x5555828938b0_0 .net "s1_araddr", 31 0, v0x55558286a5a0_0;  1 drivers
v0x555582893950_0 .net "s1_arprot", 2 0, v0x55558286a680_0;  1 drivers
v0x555582893a40_0 .net "s1_arready", 0 0, L_0x5555828b3380;  1 drivers
v0x555582893b30_0 .net "s1_arvalid", 0 0, v0x55558286a820_0;  1 drivers
v0x555582893c20_0 .net "s1_awaddr", 31 0, v0x55558286a8e0_0;  1 drivers
v0x555582893cc0_0 .net "s1_awprot", 2 0, v0x55558286a9c0_0;  1 drivers
v0x555582893db0_0 .net "s1_awready", 0 0, L_0x5555828b2f60;  1 drivers
v0x555582893ea0_0 .net "s1_awvalid", 0 0, v0x55558286ab60_0;  1 drivers
v0x555582893f90_0 .net "s1_bready", 0 0, v0x55558286ac20_0;  1 drivers
L_0x7f5fca4d1770 .functor BUFT 1, C4<00>, C4<0>, C4<0>, C4<0>;
v0x555582894080_0 .net "s1_bresp", 1 0, L_0x7f5fca4d1770;  1 drivers
v0x555582894170_0 .net "s1_bvalid", 0 0, L_0x5555828b3310;  1 drivers
v0x555582894260_0 .net "s1_rdata", 31 0, L_0x5555828b34e0;  1 drivers
v0x555582894350_0 .net "s1_rready", 0 0, v0x55558286af60_0;  1 drivers
L_0x7f5fca4d17b8 .functor BUFT 1, C4<00>, C4<0>, C4<0>, C4<0>;
v0x555582894440_0 .net "s1_rresp", 1 0, L_0x7f5fca4d17b8;  1 drivers
v0x555582894530_0 .net "s1_rvalid", 0 0, L_0x5555828b3420;  1 drivers
v0x555582894620_0 .net "s1_wdata", 31 0, v0x55558286b1c0_0;  1 drivers
v0x555582894710_0 .net "s1_wready", 0 0, L_0x5555828b3200;  1 drivers
v0x555582894800_0 .net "s1_wstrb", 3 0, v0x55558286b360_0;  1 drivers
v0x5555828948f0_0 .net "s1_wvalid", 0 0, v0x55558286b440_0;  1 drivers
v0x5555828949e0_0 .net "s2_araddr", 31 0, v0x55558286b500_0;  1 drivers
v0x555582894a80_0 .net "s2_arprot", 2 0, v0x55558286b5e0_0;  1 drivers
v0x555582894b70_0 .net "s2_arready", 0 0, L_0x5555828b3c90;  1 drivers
v0x555582894c60_0 .net "s2_arvalid", 0 0, v0x55558286b780_0;  1 drivers
v0x555582894d50_0 .net "s2_awaddr", 31 0, v0x55558286b840_0;  1 drivers
v0x555582894df0_0 .net "s2_awprot", 2 0, v0x55558286b920_0;  1 drivers
v0x555582894ee0_0 .net "s2_awready", 0 0, L_0x5555828b3870;  1 drivers
v0x555582894fd0_0 .net "s2_awvalid", 0 0, v0x55558286bac0_0;  1 drivers
v0x5555828958d0_0 .net "s2_bready", 0 0, v0x55558286bb80_0;  1 drivers
L_0x7f5fca4d1800 .functor BUFT 1, C4<00>, C4<0>, C4<0>, C4<0>;
v0x5555828959c0_0 .net "s2_bresp", 1 0, L_0x7f5fca4d1800;  1 drivers
v0x555582895ab0_0 .net "s2_bvalid", 0 0, L_0x5555828b3c20;  1 drivers
v0x555582895ba0_0 .net "s2_rdata", 31 0, L_0x5555828b3df0;  1 drivers
v0x555582895c90_0 .net "s2_rready", 0 0, v0x55558286bec0_0;  1 drivers
L_0x7f5fca4d1848 .functor BUFT 1, C4<00>, C4<0>, C4<0>, C4<0>;
v0x555582895d80_0 .net "s2_rresp", 1 0, L_0x7f5fca4d1848;  1 drivers
v0x555582895e70_0 .net "s2_rvalid", 0 0, L_0x5555828b3d30;  1 drivers
v0x555582895f60_0 .net "s2_wdata", 31 0, v0x55558286c120_0;  1 drivers
v0x555582896050_0 .net "s2_wready", 0 0, L_0x5555828b3b10;  1 drivers
v0x555582896140_0 .net "s2_wstrb", 3 0, v0x55558286c2c0_0;  1 drivers
v0x555582896230_0 .net "s2_wvalid", 0 0, v0x55558286c3a0_0;  1 drivers
v0x555582896320_0 .net "s3_araddr", 31 0, v0x55558286c460_0;  1 drivers
v0x555582896410_0 .net "s3_arprot", 2 0, v0x55558286c520_0;  1 drivers
v0x555582896500_0 .net "s3_arready", 0 0, L_0x5555828b4bf0;  1 drivers
v0x5555828965f0_0 .net "s3_arvalid", 0 0, v0x55558286c660_0;  1 drivers
v0x5555828966e0_0 .net "s3_awaddr", 31 0, v0x55558286c700_0;  1 drivers
v0x5555828967d0_0 .net "s3_awprot", 2 0, v0x55558286c7d0_0;  1 drivers
v0x5555828968c0_0 .net "s3_awready", 0 0, L_0x5555828b41d0;  1 drivers
v0x5555828969b0_0 .net "s3_awvalid", 0 0, v0x55558286c970_0;  1 drivers
v0x555582896aa0_0 .net "s3_bready", 0 0, v0x55558286ca40_0;  1 drivers
v0x555582896b90_0 .net "s3_bresp", 1 0, v0x55558285d3e0_0;  1 drivers
v0x555582896c80_0 .net "s3_bvalid", 0 0, v0x55558285d4c0_0;  1 drivers
v0x555582896d70_0 .net "s3_rdata", 31 0, v0x55558285d000_0;  1 drivers
v0x555582896e60_0 .net "s3_rready", 0 0, v0x55558286cd80_0;  1 drivers
v0x555582896f50_0 .net "s3_rresp", 1 0, v0x55558285cc20_0;  1 drivers
v0x555582897040_0 .net "s3_rvalid", 0 0, v0x55558285cd00_0;  1 drivers
v0x555582897130_0 .net "s3_wdata", 31 0, v0x55558286cff0_0;  1 drivers
v0x555582897220_0 .net "s3_wready", 0 0, L_0x5555828b44c0;  1 drivers
v0x555582897310_0 .net "s3_wstrb", 3 0, v0x55558286d190_0;  1 drivers
v0x555582897400_0 .net "s3_wvalid", 0 0, v0x55558286d260_0;  1 drivers
v0x5555828974f0_0 .net "trap", 0 0, v0x555582886920_0;  1 drivers
L_0x5555828b2c40 .part v0x555582869980_0, 0, 16;
L_0x5555828b2d30 .part v0x555582869640_0, 0, 16;
L_0x5555828b3550 .part v0x55558286a8e0_0, 0, 17;
L_0x5555828b3640 .part v0x55558286a5a0_0, 0, 17;
L_0x5555828b3e60 .part v0x55558286b840_0, 0, 24;
L_0x5555828b3f50 .part v0x55558286b500_0, 0, 24;
S_0x5555828407c0 .scope module, "u_apb_xbar" "apb_interconnect" 3 365, 4 21 0, S_0x5555827b04f0;
 .timescale -9 -12;
    .port_info 0 /INPUT 1 "clk";
    .port_info 1 /INPUT 1 "resetn";
    .port_info 2 /INPUT 1 "psel_i";
    .port_info 3 /INPUT 1 "penable_i";
    .port_info 4 /INPUT 1 "pwrite_i";
    .port_info 5 /INPUT 32 "paddr_i";
    .port_info 6 /INPUT 32 "pwdata_i";
    .port_info 7 /INPUT 4 "pstrb_i";
    .port_info 8 /INPUT 3 "pprot_i";
    .port_info 9 /OUTPUT 32 "prdata_o";
    .port_info 10 /OUTPUT 1 "pready_o";
    .port_info 11 /OUTPUT 1 "pslverr_o";
    .port_info 12 /OUTPUT 1 "psel_uart";
    .port_info 13 /OUTPUT 1 "penable_uart";
    .port_info 14 /OUTPUT 1 "pwrite_uart";
    .port_info 15 /OUTPUT 32 "paddr_uart";
    .port_info 16 /OUTPUT 32 "pwdata_uart";
    .port_info 17 /OUTPUT 4 "pstrb_uart";
    .port_info 18 /OUTPUT 3 "pprot_uart";
    .port_info 19 /INPUT 32 "prdata_uart";
    .port_info 20 /INPUT 1 "pready_uart";
    .port_info 21 /INPUT 1 "pslverr_uart";
    .port_info 22 /OUTPUT 1 "psel_timer";
    .port_info 23 /OUTPUT 1 "penable_timer";
    .port_info 24 /OUTPUT 1 "pwrite_timer";
    .port_info 25 /OUTPUT 32 "paddr_timer";
    .port_info 26 /OUTPUT 32 "pwdata_timer";
    .port_info 27 /OUTPUT 4 "pstrb_timer";
    .port_info 28 /OUTPUT 3 "pprot_timer";
    .port_info 29 /INPUT 32 "prdata_timer";
    .port_info 30 /INPUT 1 "pready_timer";
    .port_info 31 /INPUT 1 "pslverr_timer";
    .port_info 32 /OUTPUT 1 "psel_gpio";
    .port_info 33 /OUTPUT 1 "penable_gpio";
    .port_info 34 /OUTPUT 1 "pwrite_gpio";
    .port_info 35 /OUTPUT 32 "paddr_gpio";
    .port_info 36 /OUTPUT 32 "pwdata_gpio";
    .port_info 37 /OUTPUT 4 "pstrb_gpio";
    .port_info 38 /OUTPUT 3 "pprot_gpio";
    .port_info 39 /INPUT 32 "prdata_gpio";
    .port_info 40 /INPUT 1 "pready_gpio";
    .port_info 41 /INPUT 1 "pslverr_gpio";
    .port_info 42 /OUTPUT 1 "psel_spi";
    .port_info 43 /OUTPUT 1 "penable_spi";
    .port_info 44 /OUTPUT 1 "pwrite_spi";
    .port_info 45 /OUTPUT 32 "paddr_spi";
    .port_info 46 /OUTPUT 32 "pwdata_spi";
    .port_info 47 /OUTPUT 4 "pstrb_spi";
    .port_info 48 /OUTPUT 3 "pprot_spi";
    .port_info 49 /INPUT 32 "prdata_spi";
    .port_info 50 /INPUT 1 "pready_spi";
    .port_info 51 /INPUT 1 "pslverr_spi";
    .port_info 52 /OUTPUT 1 "psel_debug";
    .port_info 53 /OUTPUT 1 "penable_debug";
    .port_info 54 /OUTPUT 1 "pwrite_debug";
    .port_info 55 /OUTPUT 32 "paddr_debug";
    .port_info 56 /OUTPUT 32 "pwdata_debug";
    .port_info 57 /OUTPUT 4 "pstrb_debug";
    .port_info 58 /OUTPUT 3 "pprot_debug";
    .port_info 59 /INPUT 32 "prdata_debug";
    .port_info 60 /INPUT 1 "pready_debug";
    .port_info 61 /INPUT 1 "pslverr_debug";
enum0x5555827419e0 .enum4 (3)
   "SEL_UART" 3'b000,
   "SEL_TIMER" 3'b001,
   "SEL_GPIO" 3'b010,
   "SEL_SPI" 3'b011,
   "SEL_DEBUG" 3'b100,
   "SEL_NONE" 3'b111
 ;
L_0x5555828b4d00 .functor BUFZ 1, v0x555582859650_0, C4<0>, C4<0>, C4<0>;
L_0x5555828b4dc0 .functor BUFZ 1, v0x55558285efd0_0, C4<0>, C4<0>, C4<0>;
L_0x5555828b4e80 .functor BUFZ 32, v0x5555828595b0_0, C4<00000000000000000000000000000000>, C4<00000000000000000000000000000000>, C4<00000000000000000000000000000000>;
L_0x5555828b4f40 .functor BUFZ 32, v0x55558285ef00_0, C4<00000000000000000000000000000000>, C4<00000000000000000000000000000000>, C4<00000000000000000000000000000000>;
L_0x5555828b5000 .functor BUFZ 4, v0x55558285f380_0, C4<0000>, C4<0000>, C4<0000>;
L_0x5555828b50c0 .functor BUFZ 3, v0x5555828591a0_0, C4<000>, C4<000>, C4<000>;
L_0x5555828b51c0 .functor BUFZ 1, v0x555582859650_0, C4<0>, C4<0>, C4<0>;
L_0x5555828b5280 .functor BUFZ 1, v0x55558285efd0_0, C4<0>, C4<0>, C4<0>;
L_0x5555828b5340 .functor BUFZ 32, v0x5555828595b0_0, C4<00000000000000000000000000000000>, C4<00000000000000000000000000000000>, C4<00000000000000000000000000000000>;
L_0x5555828b53b0 .functor BUFZ 32, v0x55558285ef00_0, C4<00000000000000000000000000000000>, C4<00000000000000000000000000000000>, C4<00000000000000000000000000000000>;
L_0x5555828b5480 .functor BUFZ 4, v0x55558285f380_0, C4<0000>, C4<0000>, C4<0000>;
L_0x5555828b54f0 .functor BUFZ 3, v0x5555828591a0_0, C4<000>, C4<000>, C4<000>;
L_0x5555828b5660 .functor BUFZ 1, v0x555582859650_0, C4<0>, C4<0>, C4<0>;
L_0x5555828b56d0 .functor BUFZ 1, v0x55558285efd0_0, C4<0>, C4<0>, C4<0>;
L_0x5555828b55f0 .functor BUFZ 32, v0x5555828595b0_0, C4<00000000000000000000000000000000>, C4<00000000000000000000000000000000>, C4<00000000000000000000000000000000>;
L_0x5555828b5810 .functor BUFZ 32, v0x55558285ef00_0, C4<00000000000000000000000000000000>, C4<00000000000000000000000000000000>, C4<00000000000000000000000000000000>;
L_0x5555828b5960 .functor BUFZ 4, v0x55558285f380_0, C4<0000>, C4<0000>, C4<0000>;
L_0x5555828b5a20 .functor BUFZ 3, v0x5555828591a0_0, C4<000>, C4<000>, C4<000>;
L_0x5555828b5b80 .functor BUFZ 1, v0x555582859650_0, C4<0>, C4<0>, C4<0>;
L_0x5555828b5c40 .functor BUFZ 1, v0x55558285efd0_0, C4<0>, C4<0>, C4<0>;
L_0x5555828b5db0 .functor BUFZ 32, v0x5555828595b0_0, C4<00000000000000000000000000000000>, C4<00000000000000000000000000000000>, C4<00000000000000000000000000000000>;
L_0x5555828b5e70 .functor BUFZ 32, v0x55558285ef00_0, C4<00000000000000000000000000000000>, C4<00000000000000000000000000000000>, C4<00000000000000000000000000000000>;
L_0x5555828b5ff0 .functor BUFZ 4, v0x55558285f380_0, C4<0000>, C4<0000>, C4<0000>;
L_0x5555828b60b0 .functor BUFZ 3, v0x5555828591a0_0, C4<000>, C4<000>, C4<000>;
L_0x5555828b6240 .functor BUFZ 1, v0x555582859650_0, C4<0>, C4<0>, C4<0>;
L_0x5555828b6300 .functor BUFZ 1, v0x55558285efd0_0, C4<0>, C4<0>, C4<0>;
L_0x5555828b64a0 .functor BUFZ 32, v0x5555828595b0_0, C4<00000000000000000000000000000000>, C4<00000000000000000000000000000000>, C4<00000000000000000000000000000000>;
L_0x5555828b6560 .functor BUFZ 32, v0x55558285ef00_0, C4<00000000000000000000000000000000>, C4<00000000000000000000000000000000>, C4<00000000000000000000000000000000>;
L_0x5555828b6710 .functor BUFZ 4, v0x55558285f380_0, C4<0000>, C4<0000>, C4<0000>;
L_0x5555828b67d0 .functor BUFZ 3, v0x5555828591a0_0, C4<000>, C4<000>, C4<000>;
v0x5555827f20c0_0 .net "clk", 0 0, o0x7f5fca953018;  alias, 0 drivers
v0x5555827a3e30_0 .net "paddr_debug", 31 0, L_0x5555828b64a0;  alias, 1 drivers
v0x55558283c5b0_0 .net "paddr_gpio", 31 0, L_0x5555828b55f0;  alias, 1 drivers
v0x55558283d510_0 .net "paddr_i", 31 0, v0x5555828595b0_0;  alias, 1 drivers
v0x555582823d50_0 .net "paddr_spi", 31 0, L_0x5555828b5db0;  alias, 1 drivers
v0x555582825450_0 .net "paddr_timer", 31 0, L_0x5555828b5340;  alias, 1 drivers
v0x5555827b4500_0 .net "paddr_uart", 31 0, L_0x5555828b4e80;  alias, 1 drivers
v0x555582799e10_0 .net "penable_debug", 0 0, L_0x5555828b6240;  alias, 1 drivers
v0x5555827999f0_0 .net "penable_gpio", 0 0, L_0x5555828b5660;  alias, 1 drivers
v0x555582799ab0_0 .net "penable_i", 0 0, v0x555582859650_0;  alias, 1 drivers
v0x555582799580_0 .net "penable_spi", 0 0, L_0x5555828b5b80;  alias, 1 drivers
v0x555582799640_0 .net "penable_timer", 0 0, L_0x5555828b51c0;  alias, 1 drivers
v0x555582799180_0 .net "penable_uart", 0 0, L_0x5555828b4d00;  alias, 1 drivers
v0x555582799240_0 .net "pprot_debug", 2 0, L_0x5555828b67d0;  alias, 1 drivers
v0x555582797ee0_0 .net "pprot_gpio", 2 0, L_0x5555828b5a20;  alias, 1 drivers
v0x55558283e350_0 .net "pprot_i", 2 0, v0x5555828591a0_0;  alias, 1 drivers
v0x55558283e080_0 .net "pprot_spi", 2 0, L_0x5555828b60b0;  alias, 1 drivers
v0x555582845f90_0 .net "pprot_timer", 2 0, L_0x5555828b54f0;  alias, 1 drivers
v0x555582845cc0_0 .net "pprot_uart", 2 0, L_0x5555828b50c0;  alias, 1 drivers
v0x555582774af0_0 .net "prdata_debug", 31 0, L_0x7f5fca4d03c0;  alias, 1 drivers
v0x55558276f2f0_0 .net "prdata_gpio", 31 0, L_0x7f5fca4d0210;  alias, 1 drivers
v0x5555827a8df0_0 .var "prdata_o", 31 0;
v0x5555827b9910_0 .net "prdata_spi", 31 0, L_0x7f5fca4d02e8;  alias, 1 drivers
v0x5555827a6760_0 .net "prdata_timer", 31 0, L_0x7f5fca4d0138;  alias, 1 drivers
v0x5555827a6360_0 .net "prdata_uart", 31 0, L_0x7f5fca4d0060;  alias, 1 drivers
v0x5555827a5f80_0 .net "pready_debug", 0 0, L_0x7f5fca4d0408;  alias, 1 drivers
v0x5555827a6040_0 .net "pready_gpio", 0 0, L_0x7f5fca4d0258;  alias, 1 drivers
v0x5555827a5a80_0 .var "pready_o", 0 0;
v0x5555827a5b40_0 .net "pready_spi", 0 0, L_0x7f5fca4d0330;  alias, 1 drivers
v0x5555827a5680_0 .net "pready_timer", 0 0, L_0x7f5fca4d0180;  alias, 1 drivers
v0x5555827a5740_0 .net "pready_uart", 0 0, L_0x7f5fca4d00a8;  alias, 1 drivers
v0x5555827a5280_0 .var "psel_debug", 0 0;
v0x5555827a5340_0 .var "psel_gpio", 0 0;
v0x5555827a4ea0_0 .net "psel_i", 0 0, v0x55558285f760_0;  alias, 1 drivers
v0x5555827a4f60_0 .var "psel_spi", 0 0;
v0x5555827a4a30_0 .var "psel_timer", 0 0;
v0x5555827a4af0_0 .var "psel_uart", 0 0;
v0x555582836580_0 .net "pslverr_debug", 0 0, L_0x7f5fca4d0450;  alias, 1 drivers
v0x555582836640_0 .net "pslverr_gpio", 0 0, L_0x7f5fca4d02a0;  alias, 1 drivers
v0x5555827baa50_0 .var "pslverr_o", 0 0;
v0x5555827bab10_0 .net "pslverr_spi", 0 0, L_0x7f5fca4d0378;  alias, 1 drivers
v0x5555827b8b70_0 .net "pslverr_timer", 0 0, L_0x7f5fca4d01c8;  alias, 1 drivers
v0x5555827b8c30_0 .net "pslverr_uart", 0 0, L_0x7f5fca4d00f0;  alias, 1 drivers
v0x5555826f2f70_0 .net "pstrb_debug", 3 0, L_0x5555828b6710;  alias, 1 drivers
v0x5555826f3050_0 .net "pstrb_gpio", 3 0, L_0x5555828b5960;  alias, 1 drivers
v0x555582840380_0 .net "pstrb_i", 3 0, v0x55558285f380_0;  alias, 1 drivers
v0x555582840460_0 .net "pstrb_spi", 3 0, L_0x5555828b5ff0;  alias, 1 drivers
v0x55558283fc00_0 .net "pstrb_timer", 3 0, L_0x5555828b5480;  alias, 1 drivers
v0x55558283fce0_0 .net "pstrb_uart", 3 0, L_0x5555828b5000;  alias, 1 drivers
v0x555582848400_0 .net "pwdata_debug", 31 0, L_0x5555828b6560;  alias, 1 drivers
v0x5555828484e0_0 .net "pwdata_gpio", 31 0, L_0x5555828b5810;  alias, 1 drivers
v0x555582847fc0_0 .net "pwdata_i", 31 0, v0x55558285ef00_0;  alias, 1 drivers
v0x5555828480a0_0 .net "pwdata_spi", 31 0, L_0x5555828b5e70;  alias, 1 drivers
v0x555582847840_0 .net "pwdata_timer", 31 0, L_0x5555828b53b0;  alias, 1 drivers
v0x555582847920_0 .net "pwdata_uart", 31 0, L_0x5555828b4f40;  alias, 1 drivers
v0x5555827a9610_0 .net "pwrite_debug", 0 0, L_0x5555828b6300;  alias, 1 drivers
v0x5555827a96d0_0 .net "pwrite_gpio", 0 0, L_0x5555828b56d0;  alias, 1 drivers
v0x5555827a91d0_0 .net "pwrite_i", 0 0, v0x55558285efd0_0;  alias, 1 drivers
v0x5555827a9290_0 .net "pwrite_spi", 0 0, L_0x5555828b5c40;  alias, 1 drivers
v0x5555827aa620_0 .net "pwrite_timer", 0 0, L_0x5555828b5280;  alias, 1 drivers
v0x5555827aa6c0_0 .net "pwrite_uart", 0 0, L_0x5555828b4dc0;  alias, 1 drivers
v0x5555827aa240_0 .net "resetn", 0 0, o0x7f5fca953b88;  alias, 0 drivers
v0x5555827aa300_0 .var "slave_sel", 2 0;
E_0x5555827119e0/0 .event anyedge, v0x5555827aa300_0, v0x5555827a6360_0, v0x5555827a5740_0, v0x5555827b8c30_0;
E_0x5555827119e0/1 .event anyedge, v0x5555827a6760_0, v0x5555827a5680_0, v0x5555827b8b70_0, v0x55558276f2f0_0;
E_0x5555827119e0/2 .event anyedge, v0x5555827a6040_0, v0x555582836640_0, v0x5555827b9910_0, v0x5555827a5b40_0;
E_0x5555827119e0/3 .event anyedge, v0x5555827bab10_0, v0x555582774af0_0, v0x5555827a5f80_0, v0x555582836580_0;
E_0x5555827119e0 .event/or E_0x5555827119e0/0, E_0x5555827119e0/1, E_0x5555827119e0/2, E_0x5555827119e0/3;
E_0x555582711920 .event anyedge, v0x5555827a4ea0_0, v0x5555827aa300_0;
E_0x555582711840 .event anyedge, v0x55558283d510_0;
S_0x5555827a2880 .scope module, "u_axi2apb" "axi2apb_bridge" 3 331, 5 20 0, S_0x5555827b04f0;
 .timescale -9 -12;
    .port_info 0 /INPUT 1 "clk";
    .port_info 1 /INPUT 1 "resetn";
    .port_info 2 /INPUT 1 "axi_awvalid";
    .port_info 3 /OUTPUT 1 "axi_awready";
    .port_info 4 /INPUT 32 "axi_awaddr";
    .port_info 5 /INPUT 3 "axi_awprot";
    .port_info 6 /INPUT 1 "axi_wvalid";
    .port_info 7 /OUTPUT 1 "axi_wready";
    .port_info 8 /INPUT 32 "axi_wdata";
    .port_info 9 /INPUT 4 "axi_wstrb";
    .port_info 10 /OUTPUT 1 "axi_bvalid";
    .port_info 11 /INPUT 1 "axi_bready";
    .port_info 12 /OUTPUT 2 "axi_bresp";
    .port_info 13 /INPUT 1 "axi_arvalid";
    .port_info 14 /OUTPUT 1 "axi_arready";
    .port_info 15 /INPUT 32 "axi_araddr";
    .port_info 16 /INPUT 3 "axi_arprot";
    .port_info 17 /OUTPUT 1 "axi_rvalid";
    .port_info 18 /INPUT 1 "axi_rready";
    .port_info 19 /OUTPUT 32 "axi_rdata";
    .port_info 20 /OUTPUT 2 "axi_rresp";
    .port_info 21 /OUTPUT 1 "apb_psel";
    .port_info 22 /OUTPUT 1 "apb_penable";
    .port_info 23 /OUTPUT 1 "apb_pwrite";
    .port_info 24 /OUTPUT 32 "apb_paddr";
    .port_info 25 /OUTPUT 32 "apb_pwdata";
    .port_info 26 /OUTPUT 4 "apb_pstrb";
    .port_info 27 /OUTPUT 3 "apb_pprot";
    .port_info 28 /INPUT 32 "apb_prdata";
    .port_info 29 /INPUT 1 "apb_pready";
    .port_info 30 /INPUT 1 "apb_pslverr";
enum0x55558254ee90 .enum4 (3)
   "ST_IDLE" 3'b000,
   "ST_APB_SETUP" 3'b001,
   "ST_APB_ACCESS" 3'b010,
   "ST_WR_RESP" 3'b011,
   "ST_RD_RESP" 3'b100
 ;
L_0x5555828b41d0 .functor AND 1, L_0x5555828b4040, L_0x5555828b4130, C4<1>, C4<1>;
L_0x5555828b44c0 .functor AND 1, L_0x5555828b42e0, L_0x5555828b4420, C4<1>, C4<1>;
L_0x5555828b47f0 .functor AND 1, L_0x5555828b45d0, L_0x5555828b46c0, C4<1>, C4<1>;
L_0x5555828b49f0 .functor AND 1, L_0x5555828b47f0, L_0x5555828b4900, C4<1>, C4<1>;
L_0x5555828b4bf0 .functor AND 1, L_0x5555828b49f0, L_0x5555828b4b00, C4<1>, C4<1>;
L_0x7f5fca4d1890 .functor BUFT 1, C4<000>, C4<0>, C4<0>, C4<0>;
v0x5555826ab210_0 .net/2u *"_ivl_0", 2 0, L_0x7f5fca4d1890;  1 drivers
v0x55558279d170_0 .net *"_ivl_10", 0 0, L_0x5555828b42e0;  1 drivers
v0x5555827a0990_0 .net *"_ivl_13", 0 0, L_0x5555828b4420;  1 drivers
L_0x7f5fca4d1920 .functor BUFT 1, C4<000>, C4<0>, C4<0>, C4<0>;
v0x5555827a0a30_0 .net/2u *"_ivl_16", 2 0, L_0x7f5fca4d1920;  1 drivers
v0x5555827a0590_0 .net *"_ivl_18", 0 0, L_0x5555828b45d0;  1 drivers
v0x55558279e6b0_0 .net *"_ivl_2", 0 0, L_0x5555828b4040;  1 drivers
v0x55558279e770_0 .net *"_ivl_21", 0 0, L_0x5555828b46c0;  1 drivers
v0x555582838b80_0 .net *"_ivl_23", 0 0, L_0x5555828b47f0;  1 drivers
v0x555582838c20_0 .net *"_ivl_25", 0 0, L_0x5555828b4900;  1 drivers
v0x555582838740_0 .net *"_ivl_27", 0 0, L_0x5555828b49f0;  1 drivers
v0x555582838800_0 .net *"_ivl_29", 0 0, L_0x5555828b4b00;  1 drivers
v0x555582837f30_0 .net *"_ivl_5", 0 0, L_0x5555828b4130;  1 drivers
L_0x7f5fca4d18d8 .functor BUFT 1, C4<000>, C4<0>, C4<0>, C4<0>;
v0x555582837fd0_0 .net/2u *"_ivl_8", 2 0, L_0x7f5fca4d18d8;  1 drivers
v0x5555828595b0_0 .var "apb_paddr", 31 0;
v0x555582859650_0 .var "apb_penable", 0 0;
v0x5555828591a0_0 .var "apb_pprot", 2 0;
v0x555582859240_0 .net "apb_prdata", 31 0, v0x5555827a8df0_0;  alias, 1 drivers
v0x55558285f6c0_0 .net "apb_pready", 0 0, v0x5555827a5a80_0;  alias, 1 drivers
v0x55558285f760_0 .var "apb_psel", 0 0;
v0x55558285f2e0_0 .net "apb_pslverr", 0 0, v0x5555827baa50_0;  alias, 1 drivers
v0x55558285f380_0 .var "apb_pstrb", 3 0;
v0x55558285ef00_0 .var "apb_pwdata", 31 0;
v0x55558285efd0_0 .var "apb_pwrite", 0 0;
v0x55558285eb20_0 .var "apb_rdata_reg", 31 0;
v0x55558285ebc0_0 .var "apb_slverr_reg", 0 0;
v0x55558285e740_0 .var "aw_addr_reg", 31 0;
v0x55558285e7e0_0 .var "aw_captured", 0 0;
v0x555582858d90_0 .var "aw_prot_reg", 2 0;
v0x555582858e70_0 .net "axi_araddr", 31 0, v0x55558286c460_0;  alias, 1 drivers
v0x55558285e360_0 .net "axi_arprot", 2 0, v0x55558286c520_0;  alias, 1 drivers
v0x55558285e420_0 .net "axi_arready", 0 0, L_0x5555828b4bf0;  alias, 1 drivers
v0x55558285df80_0 .net "axi_arvalid", 0 0, v0x55558286c660_0;  alias, 1 drivers
v0x55558285e020_0 .net "axi_awaddr", 31 0, v0x55558286c700_0;  alias, 1 drivers
v0x55558285dba0_0 .net "axi_awprot", 2 0, v0x55558286c7d0_0;  alias, 1 drivers
v0x55558285dc60_0 .net "axi_awready", 0 0, L_0x5555828b41d0;  alias, 1 drivers
v0x55558285d7c0_0 .net "axi_awvalid", 0 0, v0x55558286c970_0;  alias, 1 drivers
v0x55558285d860_0 .net "axi_bready", 0 0, v0x55558286ca40_0;  alias, 1 drivers
v0x55558285d3e0_0 .var "axi_bresp", 1 0;
v0x55558285d4c0_0 .var "axi_bvalid", 0 0;
v0x55558285d000_0 .var "axi_rdata", 31 0;
v0x55558285d0e0_0 .net "axi_rready", 0 0, v0x55558286cd80_0;  alias, 1 drivers
v0x55558285cc20_0 .var "axi_rresp", 1 0;
v0x55558285cd00_0 .var "axi_rvalid", 0 0;
v0x55558285c840_0 .net "axi_wdata", 31 0, v0x55558286cff0_0;  alias, 1 drivers
v0x55558285c920_0 .net "axi_wready", 0 0, L_0x5555828b44c0;  alias, 1 drivers
v0x55558285c460_0 .net "axi_wstrb", 3 0, v0x55558286d190_0;  alias, 1 drivers
v0x55558285c540_0 .net "axi_wvalid", 0 0, v0x55558286d260_0;  alias, 1 drivers
v0x55558285c080_0 .net "clk", 0 0, o0x7f5fca953018;  alias, 0 drivers
v0x55558285c150_0 .var "is_write_txn", 0 0;
v0x555582858980_0 .net "resetn", 0 0, o0x7f5fca953b88;  alias, 0 drivers
v0x555582858a20_0 .var "state", 2 0;
v0x55558285bca0_0 .var "w_captured", 0 0;
v0x55558285bd60_0 .var "w_data_reg", 31 0;
v0x55558285b8c0_0 .var "w_strb_reg", 3 0;
E_0x55558253cc00 .event posedge, v0x5555827f20c0_0;
L_0x5555828b4040 .cmp/eq 3, v0x555582858a20_0, L_0x7f5fca4d1890;
L_0x5555828b4130 .reduce/nor v0x55558285e7e0_0;
L_0x5555828b42e0 .cmp/eq 3, v0x555582858a20_0, L_0x7f5fca4d18d8;
L_0x5555828b4420 .reduce/nor v0x55558285bca0_0;
L_0x5555828b45d0 .cmp/eq 3, v0x555582858a20_0, L_0x7f5fca4d1920;
L_0x5555828b46c0 .reduce/nor v0x55558285e7e0_0;
L_0x5555828b4900 .reduce/nor v0x55558285bca0_0;
L_0x5555828b4b00 .reduce/nor v0x55558286c970_0;
S_0x55558285b4e0 .scope module, "u_axi_xbar" "axi_interconnect" 3 185, 6 13 0, S_0x5555827b04f0;
 .timescale -9 -12;
    .port_info 0 /INPUT 1 "clk";
    .port_info 1 /INPUT 1 "resetn";
    .port_info 2 /INPUT 1 "m_axi_awvalid";
    .port_info 3 /OUTPUT 1 "m_axi_awready";
    .port_info 4 /INPUT 32 "m_axi_awaddr";
    .port_info 5 /INPUT 3 "m_axi_awprot";
    .port_info 6 /INPUT 1 "m_axi_wvalid";
    .port_info 7 /OUTPUT 1 "m_axi_wready";
    .port_info 8 /INPUT 32 "m_axi_wdata";
    .port_info 9 /INPUT 4 "m_axi_wstrb";
    .port_info 10 /OUTPUT 2 "m_axi_bresp";
    .port_info 11 /OUTPUT 1 "m_axi_bvalid";
    .port_info 12 /INPUT 1 "m_axi_bready";
    .port_info 13 /INPUT 1 "m_axi_arvalid";
    .port_info 14 /OUTPUT 1 "m_axi_arready";
    .port_info 15 /INPUT 32 "m_axi_araddr";
    .port_info 16 /INPUT 3 "m_axi_arprot";
    .port_info 17 /OUTPUT 1 "m_axi_rvalid";
    .port_info 18 /INPUT 1 "m_axi_rready";
    .port_info 19 /OUTPUT 2 "m_axi_rresp";
    .port_info 20 /OUTPUT 32 "m_axi_rdata";
    .port_info 21 /OUTPUT 1 "s0_axi_awvalid";
    .port_info 22 /INPUT 1 "s0_axi_awready";
    .port_info 23 /OUTPUT 32 "s0_axi_awaddr";
    .port_info 24 /OUTPUT 3 "s0_axi_awprot";
    .port_info 25 /OUTPUT 1 "s0_axi_wvalid";
    .port_info 26 /INPUT 1 "s0_axi_wready";
    .port_info 27 /OUTPUT 32 "s0_axi_wdata";
    .port_info 28 /OUTPUT 4 "s0_axi_wstrb";
    .port_info 29 /INPUT 1 "s0_axi_bvalid";
    .port_info 30 /OUTPUT 1 "s0_axi_bready";
    .port_info 31 /INPUT 2 "s0_axi_bresp";
    .port_info 32 /OUTPUT 1 "s0_axi_arvalid";
    .port_info 33 /INPUT 1 "s0_axi_arready";
    .port_info 34 /OUTPUT 32 "s0_axi_araddr";
    .port_info 35 /OUTPUT 3 "s0_axi_arprot";
    .port_info 36 /INPUT 1 "s0_axi_rvalid";
    .port_info 37 /OUTPUT 1 "s0_axi_rready";
    .port_info 38 /INPUT 2 "s0_axi_rresp";
    .port_info 39 /INPUT 32 "s0_axi_rdata";
    .port_info 40 /OUTPUT 1 "s1_axi_awvalid";
    .port_info 41 /INPUT 1 "s1_axi_awready";
    .port_info 42 /OUTPUT 32 "s1_axi_awaddr";
    .port_info 43 /OUTPUT 3 "s1_axi_awprot";
    .port_info 44 /OUTPUT 1 "s1_axi_wvalid";
    .port_info 45 /INPUT 1 "s1_axi_wready";
    .port_info 46 /OUTPUT 32 "s1_axi_wdata";
    .port_info 47 /OUTPUT 4 "s1_axi_wstrb";
    .port_info 48 /INPUT 1 "s1_axi_bvalid";
    .port_info 49 /OUTPUT 1 "s1_axi_bready";
    .port_info 50 /INPUT 2 "s1_axi_bresp";
    .port_info 51 /OUTPUT 1 "s1_axi_arvalid";
    .port_info 52 /INPUT 1 "s1_axi_arready";
    .port_info 53 /OUTPUT 32 "s1_axi_araddr";
    .port_info 54 /OUTPUT 3 "s1_axi_arprot";
    .port_info 55 /INPUT 1 "s1_axi_rvalid";
    .port_info 56 /OUTPUT 1 "s1_axi_rready";
    .port_info 57 /INPUT 2 "s1_axi_rresp";
    .port_info 58 /INPUT 32 "s1_axi_rdata";
    .port_info 59 /OUTPUT 1 "s2_axi_awvalid";
    .port_info 60 /INPUT 1 "s2_axi_awready";
    .port_info 61 /OUTPUT 32 "s2_axi_awaddr";
    .port_info 62 /OUTPUT 3 "s2_axi_awprot";
    .port_info 63 /OUTPUT 1 "s2_axi_wvalid";
    .port_info 64 /INPUT 1 "s2_axi_wready";
    .port_info 65 /OUTPUT 32 "s2_axi_wdata";
    .port_info 66 /OUTPUT 4 "s2_axi_wstrb";
    .port_info 67 /INPUT 1 "s2_axi_bvalid";
    .port_info 68 /OUTPUT 1 "s2_axi_bready";
    .port_info 69 /INPUT 2 "s2_axi_bresp";
    .port_info 70 /OUTPUT 1 "s2_axi_arvalid";
    .port_info 71 /INPUT 1 "s2_axi_arready";
    .port_info 72 /OUTPUT 32 "s2_axi_araddr";
    .port_info 73 /OUTPUT 3 "s2_axi_arprot";
    .port_info 74 /INPUT 1 "s2_axi_rvalid";
    .port_info 75 /OUTPUT 1 "s2_axi_rready";
    .port_info 76 /INPUT 2 "s2_axi_rresp";
    .port_info 77 /INPUT 32 "s2_axi_rdata";
    .port_info 78 /OUTPUT 1 "s3_axi_awvalid";
    .port_info 79 /INPUT 1 "s3_axi_awready";
    .port_info 80 /OUTPUT 32 "s3_axi_awaddr";
    .port_info 81 /OUTPUT 3 "s3_axi_awprot";
    .port_info 82 /OUTPUT 1 "s3_axi_wvalid";
    .port_info 83 /INPUT 1 "s3_axi_wready";
    .port_info 84 /OUTPUT 32 "s3_axi_wdata";
    .port_info 85 /OUTPUT 4 "s3_axi_wstrb";
    .port_info 86 /INPUT 1 "s3_axi_bvalid";
    .port_info 87 /OUTPUT 1 "s3_axi_bready";
    .port_info 88 /INPUT 2 "s3_axi_bresp";
    .port_info 89 /OUTPUT 1 "s3_axi_arvalid";
    .port_info 90 /INPUT 1 "s3_axi_arready";
    .port_info 91 /OUTPUT 32 "s3_axi_araddr";
    .port_info 92 /OUTPUT 3 "s3_axi_arprot";
    .port_info 93 /INPUT 1 "s3_axi_rvalid";
    .port_info 94 /OUTPUT 1 "s3_axi_rready";
    .port_info 95 /INPUT 2 "s3_axi_rresp";
    .port_info 96 /INPUT 32 "s3_axi_rdata";
P_0x555582864ed0 .param/l "SEL_S0" 1 6 168, C4<00>;
P_0x555582864f10 .param/l "SEL_S1" 1 6 169, C4<01>;
P_0x555582864f50 .param/l "SEL_S2" 1 6 170, C4<10>;
P_0x555582864f90 .param/l "SEL_S3" 1 6 171, C4<11>;
enum0x555582549f70 .enum4 (2)
   "W_IDLE" 2'b00,
   "W_DATA" 2'b01,
   "W_RESP" 2'b10,
   "W_DECERR" 2'b11
 ;
enum0x55558254a4e0 .enum4 (2)
   "R_IDLE" 2'b00,
   "R_WAIT" 2'b01,
   "R_DECERR" 2'b10
 ;
L_0x5555828ad0e0 .functor AND 1, L_0x5555828acf00, L_0x5555828acff0, C4<1>, C4<1>;
L_0x5555828ad3d0 .functor AND 1, L_0x5555828ad1f0, L_0x5555828ad2e0, C4<1>, C4<1>;
L_0x5555828ad700 .functor AND 1, L_0x5555828ad4e0, L_0x5555828ad5d0, C4<1>, C4<1>;
L_0x5555828ada40 .functor AND 1, L_0x5555828ad810, L_0x5555828ad900, C4<1>, C4<1>;
L_0x5555828ae0b0 .functor AND 1, L_0x5555828ae210, L_0x5555828ae300, C4<1>, C4<1>;
L_0x5555828ae990 .functor AND 1, L_0x5555828ae510, L_0x5555828ae600, C4<1>, C4<1>;
L_0x5555828aeae0 .functor OR 1, L_0x5555828ae0b0, L_0x5555828ae990, C4<0>, C4<0>;
L_0x5555828aee70 .functor AND 1, L_0x5555828aebf0, L_0x5555828aece0, C4<1>, C4<1>;
L_0x5555828aefd0 .functor OR 1, L_0x5555828aeae0, L_0x5555828aee70, C4<0>, C4<0>;
L_0x5555828af370 .functor AND 1, L_0x5555828af0e0, L_0x5555828af1d0, C4<1>, C4<1>;
L_0x5555828af4e0 .functor OR 1, L_0x5555828aefd0, L_0x5555828af370, C4<0>, C4<0>;
L_0x5555828af890 .functor AND 1, L_0x5555828af5f0, L_0x5555828af7a0, C4<1>, C4<1>;
L_0x5555828afcc0 .functor AND 1, L_0x5555828afa10, L_0x5555828afbd0, C4<1>, C4<1>;
L_0x5555828b0090 .functor AND 1, L_0x5555828afdd0, L_0x5555828affa0, C4<1>, C4<1>;
L_0x5555828af9a0 .functor AND 1, L_0x5555828b0220, L_0x5555828b0400, C4<1>, C4<1>;
L_0x5555828b10e0 .functor AND 1, L_0x5555828b0de0, L_0x5555828b0ff0, C4<1>, C4<1>;
L_0x5555828b1590 .functor AND 1, L_0x5555828b1280, L_0x5555828b14a0, C4<1>, C4<1>;
L_0x5555828b16a0 .functor OR 1, L_0x5555828b10e0, L_0x5555828b1590, C4<0>, C4<0>;
L_0x5555828b1a80 .functor AND 1, L_0x5555828b1850, L_0x5555828b1370, C4<1>, C4<1>;
L_0x5555828b1b90 .functor OR 1, L_0x5555828b16a0, L_0x5555828b1a80, C4<0>, C4<0>;
L_0x5555828b1fe0 .functor AND 1, L_0x5555828b17b0, L_0x5555828b1ef0, C4<1>, C4<1>;
L_0x5555828b20f0 .functor OR 1, L_0x5555828b1b90, L_0x5555828b1fe0, C4<0>, C4<0>;
L_0x7f5fca4d0b10 .functor BUFT 1, C4<00000000000000000000000000000000>, C4<0>, C4<0>, C4<0>;
v0x55558279f110_0 .net/2u *"_ivl_0", 31 0, L_0x7f5fca4d0b10;  1 drivers
L_0x7f5fca4d0ba0 .functor BUFT 1, C4<00>, C4<0>, C4<0>, C4<0>;
v0x55558279f1f0_0 .net/2u *"_ivl_10", 1 0, L_0x7f5fca4d0ba0;  1 drivers
v0x55558280e530_0 .net *"_ivl_101", 0 0, L_0x5555828af370;  1 drivers
v0x55558280e620_0 .net *"_ivl_103", 0 0, L_0x5555828af4e0;  1 drivers
L_0x7f5fca4d10f8 .functor BUFT 1, C4<00000000000000000000000000000000>, C4<0>, C4<0>, C4<0>;
v0x55558281be50_0 .net/2u *"_ivl_106", 31 0, L_0x7f5fca4d10f8;  1 drivers
v0x5555826c7980_0 .net *"_ivl_108", 0 0, L_0x5555828af5f0;  1 drivers
L_0x7f5fca4d1140 .functor BUFT 1, C4<00000000000000010000000000000000>, C4<0>, C4<0>, C4<0>;
v0x5555826c7a40_0 .net/2u *"_ivl_110", 31 0, L_0x7f5fca4d1140;  1 drivers
v0x55558283ee00_0 .net *"_ivl_112", 0 0, L_0x5555828af7a0;  1 drivers
v0x55558283eec0_0 .net *"_ivl_115", 0 0, L_0x5555828af890;  1 drivers
L_0x7f5fca4d1188 .functor BUFT 1, C4<00>, C4<0>, C4<0>, C4<0>;
v0x55558283ff20_0 .net/2u *"_ivl_116", 1 0, L_0x7f5fca4d1188;  1 drivers
L_0x7f5fca4d11d0 .functor BUFT 1, C4<00000000000000010000000000000000>, C4<0>, C4<0>, C4<0>;
v0x555582840000_0 .net/2u *"_ivl_118", 31 0, L_0x7f5fca4d11d0;  1 drivers
L_0x7f5fca4d0be8 .functor BUFT 1, C4<00000000000000010000000000000000>, C4<0>, C4<0>, C4<0>;
v0x55558283f800_0 .net/2u *"_ivl_12", 31 0, L_0x7f5fca4d0be8;  1 drivers
v0x55558283f8e0_0 .net *"_ivl_120", 0 0, L_0x5555828afa10;  1 drivers
L_0x7f5fca4d1218 .functor BUFT 1, C4<00000000000000110000000000000000>, C4<0>, C4<0>, C4<0>;
v0x555582846a40_0 .net/2u *"_ivl_122", 31 0, L_0x7f5fca4d1218;  1 drivers
v0x555582846b00_0 .net *"_ivl_124", 0 0, L_0x5555828afbd0;  1 drivers
v0x555582847b60_0 .net *"_ivl_127", 0 0, L_0x5555828afcc0;  1 drivers
L_0x7f5fca4d1260 .functor BUFT 1, C4<01>, C4<0>, C4<0>, C4<0>;
v0x555582847c20_0 .net/2u *"_ivl_128", 1 0, L_0x7f5fca4d1260;  1 drivers
L_0x7f5fca4d12a8 .functor BUFT 1, C4<01000000000000000000000000000000>, C4<0>, C4<0>, C4<0>;
v0x5555827b3250_0 .net/2u *"_ivl_130", 31 0, L_0x7f5fca4d12a8;  1 drivers
v0x5555827b3330_0 .net *"_ivl_132", 0 0, L_0x5555828afdd0;  1 drivers
L_0x7f5fca4d12f0 .functor BUFT 1, C4<01000001000000000000000000000000>, C4<0>, C4<0>, C4<0>;
v0x5555827b1120_0 .net/2u *"_ivl_134", 31 0, L_0x7f5fca4d12f0;  1 drivers
v0x5555827b11e0_0 .net *"_ivl_136", 0 0, L_0x5555828affa0;  1 drivers
v0x5555827afe50_0 .net *"_ivl_139", 0 0, L_0x5555828b0090;  1 drivers
v0x5555827aff10_0 .net *"_ivl_14", 0 0, L_0x5555828ad1f0;  1 drivers
L_0x7f5fca4d1338 .functor BUFT 1, C4<10>, C4<0>, C4<0>, C4<0>;
v0x5555827ac6f0_0 .net/2u *"_ivl_140", 1 0, L_0x7f5fca4d1338;  1 drivers
L_0x7f5fca4d1380 .functor BUFT 1, C4<00100000000000000000000000000000>, C4<0>, C4<0>, C4<0>;
v0x5555827ac7d0_0 .net/2u *"_ivl_142", 31 0, L_0x7f5fca4d1380;  1 drivers
v0x5555827abe90_0 .net *"_ivl_144", 0 0, L_0x5555828b0220;  1 drivers
L_0x7f5fca4d13c8 .functor BUFT 1, C4<00100000000000010000000000000000>, C4<0>, C4<0>, C4<0>;
v0x5555827abf50_0 .net/2u *"_ivl_146", 31 0, L_0x7f5fca4d13c8;  1 drivers
v0x55558279cc40_0 .net *"_ivl_148", 0 0, L_0x5555828b0400;  1 drivers
v0x55558279cce0_0 .net *"_ivl_151", 0 0, L_0x5555828af9a0;  1 drivers
L_0x7f5fca4d1410 .functor BUFT 1, C4<11>, C4<0>, C4<0>, C4<0>;
v0x5555827a24b0_0 .net/2u *"_ivl_152", 1 0, L_0x7f5fca4d1410;  1 drivers
L_0x7f5fca4d1458 .functor BUFT 1, C4<00>, C4<0>, C4<0>, C4<0>;
v0x5555827a2590_0 .net/2u *"_ivl_154", 1 0, L_0x7f5fca4d1458;  1 drivers
v0x5555827a1d90_0 .net *"_ivl_156", 1 0, L_0x5555828b0590;  1 drivers
v0x5555827a1e70_0 .net *"_ivl_158", 1 0, L_0x5555828b0820;  1 drivers
L_0x7f5fca4d0c30 .functor BUFT 1, C4<00000000000000110000000000000000>, C4<0>, C4<0>, C4<0>;
v0x5555826ebea0_0 .net/2u *"_ivl_16", 31 0, L_0x7f5fca4d0c30;  1 drivers
v0x5555827a1610_0 .net *"_ivl_160", 1 0, L_0x5555828b09b0;  1 drivers
L_0x7f5fca4d14a0 .functor BUFT 1, C4<00000000000000000000000000000000>, C4<0>, C4<0>, C4<0>;
v0x5555827a16f0_0 .net/2u *"_ivl_164", 31 0, L_0x7f5fca4d14a0;  1 drivers
v0x5555827a0160_0 .net *"_ivl_166", 0 0, L_0x5555828b0de0;  1 drivers
L_0x7f5fca4d14e8 .functor BUFT 1, C4<00000000000000010000000000000000>, C4<0>, C4<0>, C4<0>;
v0x5555827a0220_0 .net/2u *"_ivl_168", 31 0, L_0x7f5fca4d14e8;  1 drivers
v0x55558279e2b0_0 .net *"_ivl_170", 0 0, L_0x5555828b0ff0;  1 drivers
v0x55558279e350_0 .net *"_ivl_173", 0 0, L_0x5555828b10e0;  1 drivers
L_0x7f5fca4d1530 .functor BUFT 1, C4<00000000000000010000000000000000>, C4<0>, C4<0>, C4<0>;
v0x555582837010_0 .net/2u *"_ivl_174", 31 0, L_0x7f5fca4d1530;  1 drivers
v0x5555828370f0_0 .net *"_ivl_176", 0 0, L_0x5555828b1280;  1 drivers
L_0x7f5fca4d1578 .functor BUFT 1, C4<00000000000000110000000000000000>, C4<0>, C4<0>, C4<0>;
v0x5555828382e0_0 .net/2u *"_ivl_178", 31 0, L_0x7f5fca4d1578;  1 drivers
v0x5555828383a0_0 .net *"_ivl_18", 0 0, L_0x5555828ad2e0;  1 drivers
v0x555582837b30_0 .net *"_ivl_180", 0 0, L_0x5555828b14a0;  1 drivers
v0x555582837bf0_0 .net *"_ivl_183", 0 0, L_0x5555828b1590;  1 drivers
v0x5555828221c0_0 .net *"_ivl_185", 0 0, L_0x5555828b16a0;  1 drivers
L_0x7f5fca4d15c0 .functor BUFT 1, C4<01000000000000000000000000000000>, C4<0>, C4<0>, C4<0>;
v0x555582822280_0 .net/2u *"_ivl_186", 31 0, L_0x7f5fca4d15c0;  1 drivers
v0x5555828148a0_0 .net *"_ivl_188", 0 0, L_0x5555828b1850;  1 drivers
L_0x7f5fca4d1608 .functor BUFT 1, C4<01000001000000000000000000000000>, C4<0>, C4<0>, C4<0>;
v0x555582814940_0 .net/2u *"_ivl_190", 31 0, L_0x7f5fca4d1608;  1 drivers
v0x55558284e410_0 .net *"_ivl_192", 0 0, L_0x5555828b1370;  1 drivers
v0x55558284e4d0_0 .net *"_ivl_195", 0 0, L_0x5555828b1a80;  1 drivers
v0x555582850e30_0 .net *"_ivl_197", 0 0, L_0x5555828b1b90;  1 drivers
L_0x7f5fca4d1650 .functor BUFT 1, C4<00100000000000000000000000000000>, C4<0>, C4<0>, C4<0>;
v0x555582850ef0_0 .net/2u *"_ivl_198", 31 0, L_0x7f5fca4d1650;  1 drivers
v0x55558284f290_0 .net *"_ivl_2", 0 0, L_0x5555828acf00;  1 drivers
v0x55558284f330_0 .net *"_ivl_200", 0 0, L_0x5555828b17b0;  1 drivers
L_0x7f5fca4d1698 .functor BUFT 1, C4<00100000000000010000000000000000>, C4<0>, C4<0>, C4<0>;
v0x55558271e8e0_0 .net/2u *"_ivl_202", 31 0, L_0x7f5fca4d1698;  1 drivers
v0x55558271e9c0_0 .net *"_ivl_204", 0 0, L_0x5555828b1ef0;  1 drivers
v0x55558271ea80_0 .net *"_ivl_207", 0 0, L_0x5555828b1fe0;  1 drivers
v0x55558271eb40_0 .net *"_ivl_209", 0 0, L_0x5555828b20f0;  1 drivers
v0x55558271ec00_0 .net *"_ivl_21", 0 0, L_0x5555828ad3d0;  1 drivers
L_0x7f5fca4d0c78 .functor BUFT 1, C4<01>, C4<0>, C4<0>, C4<0>;
v0x55558271ecc0_0 .net/2u *"_ivl_22", 1 0, L_0x7f5fca4d0c78;  1 drivers
L_0x7f5fca4d0cc0 .functor BUFT 1, C4<01000000000000000000000000000000>, C4<0>, C4<0>, C4<0>;
v0x55558259d5f0_0 .net/2u *"_ivl_24", 31 0, L_0x7f5fca4d0cc0;  1 drivers
v0x55558259d6d0_0 .net *"_ivl_26", 0 0, L_0x5555828ad4e0;  1 drivers
L_0x7f5fca4d0d08 .functor BUFT 1, C4<01000001000000000000000000000000>, C4<0>, C4<0>, C4<0>;
v0x55558259d790_0 .net/2u *"_ivl_28", 31 0, L_0x7f5fca4d0d08;  1 drivers
v0x55558257f270_0 .net *"_ivl_30", 0 0, L_0x5555828ad5d0;  1 drivers
v0x55558259d830_0 .net *"_ivl_33", 0 0, L_0x5555828ad700;  1 drivers
L_0x7f5fca4d0d50 .functor BUFT 1, C4<10>, C4<0>, C4<0>, C4<0>;
v0x55558259d8f0_0 .net/2u *"_ivl_34", 1 0, L_0x7f5fca4d0d50;  1 drivers
L_0x7f5fca4d0d98 .functor BUFT 1, C4<00100000000000000000000000000000>, C4<0>, C4<0>, C4<0>;
v0x55558259d9d0_0 .net/2u *"_ivl_36", 31 0, L_0x7f5fca4d0d98;  1 drivers
v0x555582591760_0 .net *"_ivl_38", 0 0, L_0x5555828ad810;  1 drivers
L_0x7f5fca4d0b58 .functor BUFT 1, C4<00000000000000010000000000000000>, C4<0>, C4<0>, C4<0>;
v0x555582591820_0 .net/2u *"_ivl_4", 31 0, L_0x7f5fca4d0b58;  1 drivers
L_0x7f5fca4d0de0 .functor BUFT 1, C4<00100000000000010000000000000000>, C4<0>, C4<0>, C4<0>;
v0x555582591900_0 .net/2u *"_ivl_40", 31 0, L_0x7f5fca4d0de0;  1 drivers
v0x5555825919e0_0 .net *"_ivl_42", 0 0, L_0x5555828ad900;  1 drivers
v0x555582591aa0_0 .net *"_ivl_45", 0 0, L_0x5555828ada40;  1 drivers
L_0x7f5fca4d0e28 .functor BUFT 1, C4<11>, C4<0>, C4<0>, C4<0>;
v0x555582591b60_0 .net/2u *"_ivl_46", 1 0, L_0x7f5fca4d0e28;  1 drivers
L_0x7f5fca4d0e70 .functor BUFT 1, C4<00>, C4<0>, C4<0>, C4<0>;
v0x555582517d40_0 .net/2u *"_ivl_48", 1 0, L_0x7f5fca4d0e70;  1 drivers
v0x555582517e00_0 .net *"_ivl_50", 1 0, L_0x5555828adb50;  1 drivers
v0x555582517ee0_0 .net *"_ivl_52", 1 0, L_0x5555828adce0;  1 drivers
v0x555582517fc0_0 .net *"_ivl_54", 1 0, L_0x5555828ade80;  1 drivers
L_0x7f5fca4d0eb8 .functor BUFT 1, C4<00000000000000000000000000000000>, C4<0>, C4<0>, C4<0>;
v0x5555825180a0_0 .net/2u *"_ivl_58", 31 0, L_0x7f5fca4d0eb8;  1 drivers
v0x5555827030a0_0 .net *"_ivl_6", 0 0, L_0x5555828acff0;  1 drivers
v0x555582703160_0 .net *"_ivl_60", 0 0, L_0x5555828ae210;  1 drivers
L_0x7f5fca4d0f00 .functor BUFT 1, C4<00000000000000010000000000000000>, C4<0>, C4<0>, C4<0>;
v0x555582703220_0 .net/2u *"_ivl_62", 31 0, L_0x7f5fca4d0f00;  1 drivers
v0x555582703300_0 .net *"_ivl_64", 0 0, L_0x5555828ae300;  1 drivers
v0x5555827033c0_0 .net *"_ivl_67", 0 0, L_0x5555828ae0b0;  1 drivers
L_0x7f5fca4d0f48 .functor BUFT 1, C4<00000000000000010000000000000000>, C4<0>, C4<0>, C4<0>;
v0x555582703480_0 .net/2u *"_ivl_68", 31 0, L_0x7f5fca4d0f48;  1 drivers
v0x555582866f00_0 .net *"_ivl_70", 0 0, L_0x5555828ae510;  1 drivers
L_0x7f5fca4d0f90 .functor BUFT 1, C4<00000000000000110000000000000000>, C4<0>, C4<0>, C4<0>;
v0x555582866fa0_0 .net/2u *"_ivl_72", 31 0, L_0x7f5fca4d0f90;  1 drivers
v0x555582867040_0 .net *"_ivl_74", 0 0, L_0x5555828ae600;  1 drivers
v0x5555828670e0_0 .net *"_ivl_77", 0 0, L_0x5555828ae990;  1 drivers
v0x555582867180_0 .net *"_ivl_79", 0 0, L_0x5555828aeae0;  1 drivers
L_0x7f5fca4d0fd8 .functor BUFT 1, C4<01000000000000000000000000000000>, C4<0>, C4<0>, C4<0>;
v0x555582867220_0 .net/2u *"_ivl_80", 31 0, L_0x7f5fca4d0fd8;  1 drivers
v0x5555828672c0_0 .net *"_ivl_82", 0 0, L_0x5555828aebf0;  1 drivers
L_0x7f5fca4d1020 .functor BUFT 1, C4<01000001000000000000000000000000>, C4<0>, C4<0>, C4<0>;
v0x555582867360_0 .net/2u *"_ivl_84", 31 0, L_0x7f5fca4d1020;  1 drivers
v0x555582867400_0 .net *"_ivl_86", 0 0, L_0x5555828aece0;  1 drivers
v0x5555828674a0_0 .net *"_ivl_89", 0 0, L_0x5555828aee70;  1 drivers
v0x555582867540_0 .net *"_ivl_9", 0 0, L_0x5555828ad0e0;  1 drivers
v0x5555828675e0_0 .net *"_ivl_91", 0 0, L_0x5555828aefd0;  1 drivers
L_0x7f5fca4d1068 .functor BUFT 1, C4<00100000000000000000000000000000>, C4<0>, C4<0>, C4<0>;
v0x555582867680_0 .net/2u *"_ivl_92", 31 0, L_0x7f5fca4d1068;  1 drivers
v0x555582867720_0 .net *"_ivl_94", 0 0, L_0x5555828af0e0;  1 drivers
L_0x7f5fca4d10b0 .functor BUFT 1, C4<00100000000000010000000000000000>, C4<0>, C4<0>, C4<0>;
v0x5555828677c0_0 .net/2u *"_ivl_96", 31 0, L_0x7f5fca4d10b0;  1 drivers
v0x555582867860_0 .net *"_ivl_98", 0 0, L_0x5555828af1d0;  1 drivers
v0x555582867900_0 .net "ar_decerr", 0 0, L_0x5555828b22c0;  1 drivers
v0x5555828679a0_0 .net "ar_slave_sel", 1 0, L_0x5555828b0c50;  1 drivers
v0x555582867a40_0 .net "aw_decerr", 0 0, L_0x5555828aedd0;  1 drivers
v0x555582867ae0_0 .net "aw_slave_sel", 1 0, L_0x5555828ae010;  1 drivers
v0x555582867b80_0 .net "clk", 0 0, o0x7f5fca953018;  alias, 0 drivers
v0x555582867c20_0 .net "m_axi_araddr", 31 0, L_0x5555828a7f70;  alias, 1 drivers
v0x555582867cc0_0 .net "m_axi_arprot", 2 0, L_0x5555828a8140;  alias, 1 drivers
v0x555582867d60_0 .var "m_axi_arready", 0 0;
v0x555582867e00_0 .net "m_axi_arvalid", 0 0, L_0x5555827116b0;  alias, 1 drivers
v0x555582867ea0_0 .net "m_axi_awaddr", 31 0, L_0x5555826f2f00;  alias, 1 drivers
v0x555582867f40_0 .net "m_axi_awprot", 2 0, L_0x7f5fca4d0498;  alias, 1 drivers
v0x555582867fe0_0 .var "m_axi_awready", 0 0;
v0x555582868080_0 .net "m_axi_awvalid", 0 0, L_0x5555826f30f0;  alias, 1 drivers
v0x555582868120_0 .net "m_axi_bready", 0 0, L_0x5555828a8cb0;  alias, 1 drivers
v0x5555828681c0_0 .var "m_axi_bresp", 1 0;
v0x555582868280_0 .var "m_axi_bvalid", 0 0;
v0x555582868340_0 .var "m_axi_rdata", 31 0;
v0x555582868420_0 .net "m_axi_rready", 0 0, L_0x5555828a8b30;  alias, 1 drivers
v0x5555828684e0_0 .var "m_axi_rresp", 1 0;
v0x5555828685c0_0 .var "m_axi_rvalid", 0 0;
v0x555582868680_0 .net "m_axi_wdata", 31 0, L_0x5555828a85b0;  alias, 1 drivers
v0x555582868760_0 .var "m_axi_wready", 0 0;
v0x555582868820_0 .net "m_axi_wstrb", 3 0, L_0x5555828a86b0;  alias, 1 drivers
v0x555582868900_0 .net "m_axi_wvalid", 0 0, L_0x5555828a8460;  alias, 1 drivers
v0x5555828689c0_0 .var "r_addr_reg", 31 0;
v0x555582868aa0_0 .var "r_prot_reg", 2 0;
v0x555582868b80_0 .var "r_slave_reg", 1 0;
v0x555582869470_0 .var "r_state", 1 0;
v0x555582869550_0 .net "resetn", 0 0, o0x7f5fca953b88;  alias, 0 drivers
v0x555582869640_0 .var "s0_axi_araddr", 31 0;
v0x555582869720_0 .var "s0_axi_arprot", 2 0;
v0x555582869800_0 .net "s0_axi_arready", 0 0, L_0x5555828b2a70;  alias, 1 drivers
v0x5555828698c0_0 .var "s0_axi_arvalid", 0 0;
v0x555582869980_0 .var "s0_axi_awaddr", 31 0;
v0x555582869a60_0 .var "s0_axi_awprot", 2 0;
v0x555582869b40_0 .net "s0_axi_awready", 0 0, L_0x5555828b2650;  alias, 1 drivers
v0x555582869c00_0 .var "s0_axi_awvalid", 0 0;
v0x555582869cc0_0 .var "s0_axi_bready", 0 0;
v0x555582869d80_0 .net "s0_axi_bresp", 1 0, L_0x7f5fca4d16e0;  alias, 1 drivers
v0x555582869e60_0 .net "s0_axi_bvalid", 0 0, L_0x5555828b2a00;  alias, 1 drivers
v0x555582869f20_0 .net "s0_axi_rdata", 31 0, L_0x5555828b2bd0;  alias, 1 drivers
v0x55558286a000_0 .var "s0_axi_rready", 0 0;
v0x55558286a0c0_0 .net "s0_axi_rresp", 1 0, L_0x7f5fca4d1728;  alias, 1 drivers
v0x55558286a1a0_0 .net "s0_axi_rvalid", 0 0, L_0x5555828b2b10;  alias, 1 drivers
v0x55558286a260_0 .var "s0_axi_wdata", 31 0;
v0x55558286a340_0 .net "s0_axi_wready", 0 0, L_0x5555828b28f0;  alias, 1 drivers
v0x55558286a400_0 .var "s0_axi_wstrb", 3 0;
v0x55558286a4e0_0 .var "s0_axi_wvalid", 0 0;
v0x55558286a5a0_0 .var "s1_axi_araddr", 31 0;
v0x55558286a680_0 .var "s1_axi_arprot", 2 0;
v0x55558286a760_0 .net "s1_axi_arready", 0 0, L_0x5555828b3380;  alias, 1 drivers
v0x55558286a820_0 .var "s1_axi_arvalid", 0 0;
v0x55558286a8e0_0 .var "s1_axi_awaddr", 31 0;
v0x55558286a9c0_0 .var "s1_axi_awprot", 2 0;
v0x55558286aaa0_0 .net "s1_axi_awready", 0 0, L_0x5555828b2f60;  alias, 1 drivers
v0x55558286ab60_0 .var "s1_axi_awvalid", 0 0;
v0x55558286ac20_0 .var "s1_axi_bready", 0 0;
v0x55558286ace0_0 .net "s1_axi_bresp", 1 0, L_0x7f5fca4d1770;  alias, 1 drivers
v0x55558286adc0_0 .net "s1_axi_bvalid", 0 0, L_0x5555828b3310;  alias, 1 drivers
v0x55558286ae80_0 .net "s1_axi_rdata", 31 0, L_0x5555828b34e0;  alias, 1 drivers
v0x55558286af60_0 .var "s1_axi_rready", 0 0;
v0x55558286b020_0 .net "s1_axi_rresp", 1 0, L_0x7f5fca4d17b8;  alias, 1 drivers
v0x55558286b100_0 .net "s1_axi_rvalid", 0 0, L_0x5555828b3420;  alias, 1 drivers
v0x55558286b1c0_0 .var "s1_axi_wdata", 31 0;
v0x55558286b2a0_0 .net "s1_axi_wready", 0 0, L_0x5555828b3200;  alias, 1 drivers
v0x55558286b360_0 .var "s1_axi_wstrb", 3 0;
v0x55558286b440_0 .var "s1_axi_wvalid", 0 0;
v0x55558286b500_0 .var "s2_axi_araddr", 31 0;
v0x55558286b5e0_0 .var "s2_axi_arprot", 2 0;
v0x55558286b6c0_0 .net "s2_axi_arready", 0 0, L_0x5555828b3c90;  alias, 1 drivers
v0x55558286b780_0 .var "s2_axi_arvalid", 0 0;
v0x55558286b840_0 .var "s2_axi_awaddr", 31 0;
v0x55558286b920_0 .var "s2_axi_awprot", 2 0;
v0x55558286ba00_0 .net "s2_axi_awready", 0 0, L_0x5555828b3870;  alias, 1 drivers
v0x55558286bac0_0 .var "s2_axi_awvalid", 0 0;
v0x55558286bb80_0 .var "s2_axi_bready", 0 0;
v0x55558286bc40_0 .net "s2_axi_bresp", 1 0, L_0x7f5fca4d1800;  alias, 1 drivers
v0x55558286bd20_0 .net "s2_axi_bvalid", 0 0, L_0x5555828b3c20;  alias, 1 drivers
v0x55558286bde0_0 .net "s2_axi_rdata", 31 0, L_0x5555828b3df0;  alias, 1 drivers
v0x55558286bec0_0 .var "s2_axi_rready", 0 0;
v0x55558286bf80_0 .net "s2_axi_rresp", 1 0, L_0x7f5fca4d1848;  alias, 1 drivers
v0x55558286c060_0 .net "s2_axi_rvalid", 0 0, L_0x5555828b3d30;  alias, 1 drivers
v0x55558286c120_0 .var "s2_axi_wdata", 31 0;
v0x55558286c200_0 .net "s2_axi_wready", 0 0, L_0x5555828b3b10;  alias, 1 drivers
v0x55558286c2c0_0 .var "s2_axi_wstrb", 3 0;
v0x55558286c3a0_0 .var "s2_axi_wvalid", 0 0;
v0x55558286c460_0 .var "s3_axi_araddr", 31 0;
v0x55558286c520_0 .var "s3_axi_arprot", 2 0;
v0x55558286c5c0_0 .net "s3_axi_arready", 0 0, L_0x5555828b4bf0;  alias, 1 drivers
v0x55558286c660_0 .var "s3_axi_arvalid", 0 0;
v0x55558286c700_0 .var "s3_axi_awaddr", 31 0;
v0x55558286c7d0_0 .var "s3_axi_awprot", 2 0;
v0x55558286c8a0_0 .net "s3_axi_awready", 0 0, L_0x5555828b41d0;  alias, 1 drivers
v0x55558286c970_0 .var "s3_axi_awvalid", 0 0;
v0x55558286ca40_0 .var "s3_axi_bready", 0 0;
v0x55558286cb10_0 .net "s3_axi_bresp", 1 0, v0x55558285d3e0_0;  alias, 1 drivers
v0x55558286cbe0_0 .net "s3_axi_bvalid", 0 0, v0x55558285d4c0_0;  alias, 1 drivers
v0x55558286ccb0_0 .net "s3_axi_rdata", 31 0, v0x55558285d000_0;  alias, 1 drivers
v0x55558286cd80_0 .var "s3_axi_rready", 0 0;
v0x55558286ce50_0 .net "s3_axi_rresp", 1 0, v0x55558285cc20_0;  alias, 1 drivers
v0x55558286cf20_0 .net "s3_axi_rvalid", 0 0, v0x55558285cd00_0;  alias, 1 drivers
v0x55558286cff0_0 .var "s3_axi_wdata", 31 0;
v0x55558286d0c0_0 .net "s3_axi_wready", 0 0, L_0x5555828b44c0;  alias, 1 drivers
v0x55558286d190_0 .var "s3_axi_wstrb", 3 0;
v0x55558286d260_0 .var "s3_axi_wvalid", 0 0;
v0x55558286d330_0 .var "w_addr_reg", 31 0;
v0x55558286d3d0_0 .var "w_prot_reg", 2 0;
v0x55558286d470_0 .var "w_slave_reg", 1 0;
v0x55558286d510_0 .var "w_state", 1 0;
E_0x5555828638c0/0 .event anyedge, v0x555582869470_0, v0x555582868b80_0, v0x555582869f20_0, v0x55558286a0c0_0;
E_0x5555828638c0/1 .event anyedge, v0x55558286a1a0_0, v0x555582868420_0, v0x55558286ae80_0, v0x55558286b020_0;
E_0x5555828638c0/2 .event anyedge, v0x55558286b100_0, v0x55558286bde0_0, v0x55558286bf80_0, v0x55558286c060_0;
E_0x5555828638c0/3 .event anyedge, v0x55558285d000_0, v0x55558285cc20_0, v0x55558285cd00_0;
E_0x5555828638c0 .event/or E_0x5555828638c0/0, E_0x5555828638c0/1, E_0x5555828638c0/2, E_0x5555828638c0/3;
E_0x5555828644b0/0 .event anyedge, v0x555582869470_0, v0x555582867e00_0, v0x555582867900_0, v0x5555828679a0_0;
E_0x5555828644b0/1 .event anyedge, v0x555582867c20_0, v0x555582867cc0_0, v0x555582869800_0, v0x55558286a760_0;
E_0x5555828644b0/2 .event anyedge, v0x55558286b6c0_0, v0x55558285e420_0, v0x555582868b80_0, v0x555582868aa0_0;
E_0x5555828644b0 .event/or E_0x5555828644b0/0, E_0x5555828644b0/1, E_0x5555828644b0/2;
E_0x5555827b6a20/0 .event anyedge, v0x55558286d510_0, v0x55558286d470_0, v0x555582869e60_0, v0x555582869d80_0;
E_0x5555827b6a20/1 .event anyedge, v0x555582868120_0, v0x55558286adc0_0, v0x55558286ace0_0, v0x55558286bd20_0;
E_0x5555827b6a20/2 .event anyedge, v0x55558286bc40_0, v0x55558285d4c0_0, v0x55558285d3e0_0;
E_0x5555827b6a20 .event/or E_0x5555827b6a20/0, E_0x5555827b6a20/1, E_0x5555827b6a20/2;
E_0x5555827b5cf0/0 .event anyedge, v0x55558286d510_0, v0x55558286d470_0, v0x555582868900_0, v0x555582868680_0;
E_0x5555827b5cf0/1 .event anyedge, v0x555582868820_0, v0x55558286a340_0, v0x55558286b2a0_0, v0x55558286c200_0;
E_0x5555827b5cf0/2 .event anyedge, v0x55558285c920_0;
E_0x5555827b5cf0 .event/or E_0x5555827b5cf0/0, E_0x5555827b5cf0/1, E_0x5555827b5cf0/2;
E_0x5555827b5db0/0 .event anyedge, v0x55558286d510_0, v0x555582868080_0, v0x555582867a40_0, v0x555582867ae0_0;
E_0x5555827b5db0/1 .event anyedge, v0x555582867ea0_0, v0x555582867f40_0, v0x555582869b40_0, v0x55558286aaa0_0;
E_0x5555827b5db0/2 .event anyedge, v0x55558286ba00_0, v0x55558285dc60_0;
E_0x5555827b5db0 .event/or E_0x5555827b5db0/0, E_0x5555827b5db0/1, E_0x5555827b5db0/2;
L_0x5555828acf00 .cmp/ge 32, L_0x5555826f2f00, L_0x7f5fca4d0b10;
L_0x5555828acff0 .cmp/gt 32, L_0x7f5fca4d0b58, L_0x5555826f2f00;
L_0x5555828ad1f0 .cmp/ge 32, L_0x5555826f2f00, L_0x7f5fca4d0be8;
L_0x5555828ad2e0 .cmp/gt 32, L_0x7f5fca4d0c30, L_0x5555826f2f00;
L_0x5555828ad4e0 .cmp/ge 32, L_0x5555826f2f00, L_0x7f5fca4d0cc0;
L_0x5555828ad5d0 .cmp/gt 32, L_0x7f5fca4d0d08, L_0x5555826f2f00;
L_0x5555828ad810 .cmp/ge 32, L_0x5555826f2f00, L_0x7f5fca4d0d98;
L_0x5555828ad900 .cmp/gt 32, L_0x7f5fca4d0de0, L_0x5555826f2f00;
L_0x5555828adb50 .functor MUXZ 2, L_0x7f5fca4d0e70, L_0x7f5fca4d0e28, L_0x5555828ada40, C4<>;
L_0x5555828adce0 .functor MUXZ 2, L_0x5555828adb50, L_0x7f5fca4d0d50, L_0x5555828ad700, C4<>;
L_0x5555828ade80 .functor MUXZ 2, L_0x5555828adce0, L_0x7f5fca4d0c78, L_0x5555828ad3d0, C4<>;
L_0x5555828ae010 .functor MUXZ 2, L_0x5555828ade80, L_0x7f5fca4d0ba0, L_0x5555828ad0e0, C4<>;
L_0x5555828ae210 .cmp/ge 32, L_0x5555826f2f00, L_0x7f5fca4d0eb8;
L_0x5555828ae300 .cmp/gt 32, L_0x7f5fca4d0f00, L_0x5555826f2f00;
L_0x5555828ae510 .cmp/ge 32, L_0x5555826f2f00, L_0x7f5fca4d0f48;
L_0x5555828ae600 .cmp/gt 32, L_0x7f5fca4d0f90, L_0x5555826f2f00;
L_0x5555828aebf0 .cmp/ge 32, L_0x5555826f2f00, L_0x7f5fca4d0fd8;
L_0x5555828aece0 .cmp/gt 32, L_0x7f5fca4d1020, L_0x5555826f2f00;
L_0x5555828af0e0 .cmp/ge 32, L_0x5555826f2f00, L_0x7f5fca4d1068;
L_0x5555828af1d0 .cmp/gt 32, L_0x7f5fca4d10b0, L_0x5555826f2f00;
L_0x5555828aedd0 .reduce/nor L_0x5555828af4e0;
L_0x5555828af5f0 .cmp/ge 32, L_0x5555828a7f70, L_0x7f5fca4d10f8;
L_0x5555828af7a0 .cmp/gt 32, L_0x7f5fca4d1140, L_0x5555828a7f70;
L_0x5555828afa10 .cmp/ge 32, L_0x5555828a7f70, L_0x7f5fca4d11d0;
L_0x5555828afbd0 .cmp/gt 32, L_0x7f5fca4d1218, L_0x5555828a7f70;
L_0x5555828afdd0 .cmp/ge 32, L_0x5555828a7f70, L_0x7f5fca4d12a8;
L_0x5555828affa0 .cmp/gt 32, L_0x7f5fca4d12f0, L_0x5555828a7f70;
L_0x5555828b0220 .cmp/ge 32, L_0x5555828a7f70, L_0x7f5fca4d1380;
L_0x5555828b0400 .cmp/gt 32, L_0x7f5fca4d13c8, L_0x5555828a7f70;
L_0x5555828b0590 .functor MUXZ 2, L_0x7f5fca4d1458, L_0x7f5fca4d1410, L_0x5555828af9a0, C4<>;
L_0x5555828b0820 .functor MUXZ 2, L_0x5555828b0590, L_0x7f5fca4d1338, L_0x5555828b0090, C4<>;
L_0x5555828b09b0 .functor MUXZ 2, L_0x5555828b0820, L_0x7f5fca4d1260, L_0x5555828afcc0, C4<>;
L_0x5555828b0c50 .functor MUXZ 2, L_0x5555828b09b0, L_0x7f5fca4d1188, L_0x5555828af890, C4<>;
L_0x5555828b0de0 .cmp/ge 32, L_0x5555828a7f70, L_0x7f5fca4d14a0;
L_0x5555828b0ff0 .cmp/gt 32, L_0x7f5fca4d14e8, L_0x5555828a7f70;
L_0x5555828b1280 .cmp/ge 32, L_0x5555828a7f70, L_0x7f5fca4d1530;
L_0x5555828b14a0 .cmp/gt 32, L_0x7f5fca4d1578, L_0x5555828a7f70;
L_0x5555828b1850 .cmp/ge 32, L_0x5555828a7f70, L_0x7f5fca4d15c0;
L_0x5555828b1370 .cmp/gt 32, L_0x7f5fca4d1608, L_0x5555828a7f70;
L_0x5555828b17b0 .cmp/ge 32, L_0x5555828a7f70, L_0x7f5fca4d1650;
L_0x5555828b1ef0 .cmp/gt 32, L_0x7f5fca4d1698, L_0x5555828a7f70;
L_0x5555828b22c0 .reduce/nor L_0x5555828b20f0;
S_0x55558286e170 .scope module, "u_bootrom" "axi_ram" 3 253, 7 7 0, S_0x5555827b04f0;
 .timescale -9 -12;
    .port_info 0 /INPUT 1 "clk";
    .port_info 1 /INPUT 1 "resetn";
    .port_info 2 /INPUT 16 "axi_awaddr";
    .port_info 3 /INPUT 3 "axi_awprot";
    .port_info 4 /INPUT 1 "axi_awvalid";
    .port_info 5 /OUTPUT 1 "axi_awready";
    .port_info 6 /INPUT 32 "axi_wdata";
    .port_info 7 /INPUT 1 "axi_wvalid";
    .port_info 8 /OUTPUT 1 "axi_wready";
    .port_info 9 /INPUT 4 "axi_wstrb";
    .port_info 10 /OUTPUT 1 "axi_bvalid";
    .port_info 11 /INPUT 1 "axi_bready";
    .port_info 12 /OUTPUT 2 "axi_bresp";
    .port_info 13 /INPUT 16 "axi_araddr";
    .port_info 14 /INPUT 3 "axi_arprot";
    .port_info 15 /INPUT 1 "axi_arvalid";
    .port_info 16 /OUTPUT 1 "axi_arready";
    .port_info 17 /OUTPUT 32 "axi_rdata";
    .port_info 18 /OUTPUT 1 "axi_rvalid";
    .port_info 19 /INPUT 1 "axi_rready";
    .port_info 20 /OUTPUT 2 "axi_rresp";
P_0x555582847440 .param/l "ADDR_WIDTH" 0 7 8, +C4<00000000000000000000000000010000>;
P_0x555582847480 .param/l "DATA_WIDTH" 0 7 9, +C4<00000000000000000000000000100000>;
P_0x5555828474c0 .param/l "MEM_DEPTH" 1 7 58, +C4<00000000000000000100000000000000>;
P_0x555582847500 .param/str "MEM_INIT_FILE" 0 7 10, "\000";
L_0x5555828b2650 .functor AND 1, L_0x5555828b2510, L_0x5555828b25b0, C4<1>, C4<1>;
L_0x5555828b28f0 .functor AND 1, L_0x5555828b2760, L_0x5555828b2800, C4<1>, C4<1>;
L_0x5555828b2a00 .functor BUFZ 1, v0x555582870060_0, C4<0>, C4<0>, C4<0>;
L_0x5555828b2b10 .functor BUFZ 1, v0x555582870380_0, C4<0>, C4<0>, C4<0>;
L_0x5555828b2bd0 .functor BUFZ 32, v0x555582870240_0, C4<00000000000000000000000000000000>, C4<00000000000000000000000000000000>, C4<00000000000000000000000000000000>;
v0x55558286eaf0_0 .net *"_ivl_11", 0 0, L_0x5555828b2760;  1 drivers
v0x55558286ebd0_0 .net *"_ivl_13", 0 0, L_0x5555828b2800;  1 drivers
v0x55558286ec90_0 .net *"_ivl_5", 0 0, L_0x5555828b2510;  1 drivers
v0x55558286ed60_0 .net *"_ivl_7", 0 0, L_0x5555828b25b0;  1 drivers
v0x55558286ee20_0 .var "aw_addr_reg", 13 0;
v0x55558286ef50_0 .var "aw_done", 0 0;
v0x55558286f010_0 .net "axi_araddr", 15 0, L_0x5555828b2d30;  1 drivers
v0x55558286f0f0_0 .net "axi_arprot", 2 0, v0x555582869720_0;  alias, 1 drivers
v0x55558286f1b0_0 .net "axi_arready", 0 0, L_0x5555828b2a70;  alias, 1 drivers
v0x55558286f280_0 .net "axi_arvalid", 0 0, v0x5555828698c0_0;  alias, 1 drivers
v0x55558286f350_0 .net "axi_awaddr", 15 0, L_0x5555828b2c40;  1 drivers
v0x55558286f3f0_0 .net "axi_awprot", 2 0, v0x555582869a60_0;  alias, 1 drivers
v0x55558286f4c0_0 .net "axi_awready", 0 0, L_0x5555828b2650;  alias, 1 drivers
v0x55558286f590_0 .net "axi_awvalid", 0 0, v0x555582869c00_0;  alias, 1 drivers
v0x55558286f660_0 .net "axi_bready", 0 0, v0x555582869cc0_0;  alias, 1 drivers
v0x55558286f730_0 .net "axi_bresp", 1 0, L_0x7f5fca4d16e0;  alias, 1 drivers
v0x55558286f800_0 .net "axi_bvalid", 0 0, L_0x5555828b2a00;  alias, 1 drivers
v0x55558286f9e0_0 .net "axi_rdata", 31 0, L_0x5555828b2bd0;  alias, 1 drivers
v0x55558286fab0_0 .net "axi_rready", 0 0, v0x55558286a000_0;  alias, 1 drivers
v0x55558286fb80_0 .net "axi_rresp", 1 0, L_0x7f5fca4d1728;  alias, 1 drivers
v0x55558286fc50_0 .net "axi_rvalid", 0 0, L_0x5555828b2b10;  alias, 1 drivers
v0x55558286fd20_0 .net "axi_wdata", 31 0, v0x55558286a260_0;  alias, 1 drivers
v0x55558286fdf0_0 .net "axi_wready", 0 0, L_0x5555828b28f0;  alias, 1 drivers
v0x55558286fec0_0 .net "axi_wstrb", 3 0, v0x55558286a400_0;  alias, 1 drivers
v0x55558286ff90_0 .net "axi_wvalid", 0 0, v0x55558286a4e0_0;  alias, 1 drivers
v0x555582870060_0 .var "bvalid_reg", 0 0;
v0x555582870100_0 .net "clk", 0 0, o0x7f5fca953018;  alias, 0 drivers
v0x5555828701a0 .array "memory", 16383 0, 31 0;
v0x555582870240_0 .var "rdata_reg", 31 0;
v0x5555828702e0_0 .net "resetn", 0 0, o0x7f5fca953b88;  alias, 0 drivers
v0x555582870380_0 .var "rvalid_reg", 0 0;
v0x555582870420_0 .var "w_data_reg", 31 0;
v0x5555828704c0_0 .var "w_done", 0 0;
v0x555582870560_0 .var "w_strb_reg", 3 0;
L_0x5555828b2510 .reduce/nor v0x55558286ef50_0;
L_0x5555828b25b0 .reduce/nor v0x555582870060_0;
L_0x5555828b2760 .reduce/nor v0x5555828704c0_0;
L_0x5555828b2800 .reduce/nor v0x555582870060_0;
L_0x5555828b2a70 .reduce/nor v0x555582870380_0;
S_0x55558286e7f0 .scope begin, "$ivl_for_loop0" "$ivl_for_loop0" 7 63, 7 63 0, S_0x55558286e170;
 .timescale -9 -12;
v0x55558286e9f0_0 .var/2s "i", 31 0;
S_0x5555828708c0 .scope module, "u_cpu" "picorv32_axi" 3 158, 8 27 0, S_0x5555827b04f0;
 .timescale -9 -12;
    .port_info 0 /INPUT 1 "clk";
    .port_info 1 /INPUT 1 "resetn";
    .port_info 2 /OUTPUT 1 "trap";
    .port_info 3 /INPUT 32 "irq";
    .port_info 4 /OUTPUT 32 "eoi";
    .port_info 5 /OUTPUT 1 "mem_axi_awvalid";
    .port_info 6 /INPUT 1 "mem_axi_awready";
    .port_info 7 /OUTPUT 32 "mem_axi_awaddr";
    .port_info 8 /OUTPUT 3 "mem_axi_awprot";
    .port_info 9 /OUTPUT 1 "mem_axi_wvalid";
    .port_info 10 /INPUT 1 "mem_axi_wready";
    .port_info 11 /OUTPUT 32 "mem_axi_wdata";
    .port_info 12 /OUTPUT 4 "mem_axi_wstrb";
    .port_info 13 /INPUT 1 "mem_axi_bvalid";
    .port_info 14 /OUTPUT 1 "mem_axi_bready";
    .port_info 15 /OUTPUT 1 "mem_axi_arvalid";
    .port_info 16 /INPUT 1 "mem_axi_arready";
    .port_info 17 /OUTPUT 32 "mem_axi_araddr";
    .port_info 18 /OUTPUT 3 "mem_axi_arprot";
    .port_info 19 /INPUT 1 "mem_axi_rvalid";
    .port_info 20 /OUTPUT 1 "mem_axi_rready";
    .port_info 21 /INPUT 32 "mem_axi_rdata";
    .port_info 22 /OUTPUT 1 "trace_valid";
    .port_info 23 /OUTPUT 36 "trace_data";
P_0x555582870aa0 .param/l "BARREL_SHIFTER" 0 8 33, C4<0>;
P_0x555582870ae0 .param/l "CATCH_ILLINSN" 0 8 38, C4<0>;
P_0x555582870b20 .param/l "CATCH_MISALIGN" 0 8 37, C4<0>;
P_0x555582870b60 .param/l "COMPRESSED_ISA" 0 8 36, C4<0>;
P_0x555582870ba0 .param/l "ENABLE_COUNTERS" 0 8 28, C4<1>;
P_0x555582870be0 .param/l "ENABLE_COUNTERS64" 0 8 29, C4<0>;
P_0x555582870c20 .param/l "ENABLE_DIV" 0 8 42, C4<0>;
P_0x555582870c60 .param/l "ENABLE_FAST_MUL" 0 8 41, C4<0>;
P_0x555582870ca0 .param/l "ENABLE_IRQ" 0 8 43, C4<0>;
P_0x555582870ce0 .param/l "ENABLE_IRQ_QREGS" 0 8 44, C4<0>;
P_0x555582870d20 .param/l "ENABLE_IRQ_TIMER" 0 8 45, C4<0>;
P_0x555582870d60 .param/l "ENABLE_MUL" 0 8 40, C4<0>;
P_0x555582870da0 .param/l "ENABLE_PCPI" 0 8 39, C4<0>;
P_0x555582870de0 .param/l "ENABLE_REGS_16_31" 0 8 30, C4<1>;
P_0x555582870e20 .param/l "ENABLE_REGS_DUALPORT" 0 8 31, C4<1>;
P_0x555582870e60 .param/l "ENABLE_TRACE" 0 8 46, C4<0>;
P_0x555582870ea0 .param/l "LATCHED_IRQ" 0 8 49, C4<11111111111111111111111111111111>;
P_0x555582870ee0 .param/l "MASKED_IRQ" 0 8 48, C4<00000000000000000000000000000000>;
P_0x555582870f20 .param/l "PROGADDR_IRQ" 0 8 51, C4<00000000000000000000000000010000>;
P_0x555582870f60 .param/l "PROGADDR_RESET" 0 8 50, C4<00000000000000000000000000000000>;
P_0x555582870fa0 .param/l "REGS_INIT_ZERO" 0 8 47, C4<0>;
P_0x555582870fe0 .param/l "STACKADDR" 0 8 52, C4<00000000000000101111111111111100>;
P_0x555582871020 .param/l "TWO_CYCLE_ALU" 0 8 35, C4<0>;
P_0x555582871060 .param/l "TWO_CYCLE_COMPARE" 0 8 34, C4<0>;
P_0x5555828710a0 .param/l "TWO_STAGE_SHIFT" 0 8 32, C4<0>;
v0x555582886d40_0 .net "clk", 0 0, o0x7f5fca953018;  alias, 0 drivers
v0x555582886e00_0 .net "eoi", 31 0, v0x55558287dd00_0;  alias, 1 drivers
v0x555582886ef0_0 .net "irq", 31 0, L_0x7f5fca4d0018;  alias, 1 drivers
v0x555582886ff0_0 .net "mem_addr", 31 0, v0x555582882410_0;  1 drivers
v0x555582887090_0 .net "mem_axi_araddr", 31 0, L_0x5555828a7f70;  alias, 1 drivers
v0x5555828871d0_0 .net "mem_axi_arprot", 2 0, L_0x5555828a8140;  alias, 1 drivers
v0x5555828872e0_0 .net "mem_axi_arready", 0 0, v0x555582867d60_0;  alias, 1 drivers
v0x5555828873d0_0 .net "mem_axi_arvalid", 0 0, L_0x5555827116b0;  alias, 1 drivers
v0x5555828874c0_0 .net "mem_axi_awaddr", 31 0, L_0x5555826f2f00;  alias, 1 drivers
v0x555582887580_0 .net "mem_axi_awprot", 2 0, L_0x7f5fca4d0498;  alias, 1 drivers
v0x555582887690_0 .net "mem_axi_awready", 0 0, v0x555582867fe0_0;  alias, 1 drivers
v0x555582887780_0 .net "mem_axi_awvalid", 0 0, L_0x5555826f30f0;  alias, 1 drivers
v0x555582887870_0 .net "mem_axi_bready", 0 0, L_0x5555828a8cb0;  alias, 1 drivers
v0x555582887960_0 .net "mem_axi_bvalid", 0 0, v0x555582868280_0;  alias, 1 drivers
v0x555582887a50_0 .net "mem_axi_rdata", 31 0, v0x555582868340_0;  alias, 1 drivers
v0x555582887b60_0 .net "mem_axi_rready", 0 0, L_0x5555828a8b30;  alias, 1 drivers
v0x555582887c50_0 .net "mem_axi_rvalid", 0 0, v0x5555828685c0_0;  alias, 1 drivers
v0x555582887e50_0 .net "mem_axi_wdata", 31 0, L_0x5555828a85b0;  alias, 1 drivers
v0x555582887f60_0 .net "mem_axi_wready", 0 0, v0x555582868760_0;  alias, 1 drivers
v0x555582888050_0 .net "mem_axi_wstrb", 3 0, L_0x5555828a86b0;  alias, 1 drivers
v0x555582888160_0 .net "mem_axi_wvalid", 0 0, L_0x5555828a8460;  alias, 1 drivers
v0x555582888250_0 .net "mem_instr", 0 0, v0x5555828829f0_0;  1 drivers
v0x555582888340_0 .net "mem_rdata", 31 0, L_0x5555828a8f50;  1 drivers
v0x555582888450_0 .net "mem_ready", 0 0, L_0x5555828a8ba0;  1 drivers
v0x555582888540_0 .net "mem_valid", 0 0, v0x555582883860_0;  1 drivers
v0x555582888630_0 .net "mem_wdata", 31 0, v0x555582883930_0;  1 drivers
v0x555582888740_0 .net "mem_wstrb", 3 0, v0x555582883ac0_0;  1 drivers
v0x555582888850_0 .net "pcpi_insn", 31 0, v0x5555828842f0_0;  1 drivers
v0x555582888910_0 .var "pcpi_rd", 31 0;
v0x5555828889b0_0 .var "pcpi_ready", 0 0;
v0x555582888a50_0 .net "pcpi_rs1", 31 0, L_0x5555828a9660;  1 drivers
v0x555582888af0_0 .net "pcpi_rs2", 31 0, L_0x5555828a96d0;  1 drivers
v0x555582888b90_0 .net "pcpi_valid", 0 0, v0x555582884e30_0;  1 drivers
v0x555582888c30_0 .var "pcpi_wait", 0 0;
v0x555582888cd0_0 .var "pcpi_wr", 0 0;
v0x555582888d70_0 .net "resetn", 0 0, o0x7f5fca953b88;  alias, 0 drivers
v0x555582888e10_0 .net "trace_data", 35 0, v0x5555828867c0_0;  1 drivers
v0x555582888eb0_0 .net "trace_valid", 0 0, v0x555582886860_0;  1 drivers
v0x555582888f50_0 .net "trap", 0 0, v0x555582886920_0;  alias, 1 drivers
S_0x555582871c20 .scope module, "axi_adapter" "picorv32_axi_adapter" 8 105, 9 27 0, S_0x5555828708c0;
 .timescale -9 -12;
    .port_info 0 /INPUT 1 "clk";
    .port_info 1 /INPUT 1 "resetn";
    .port_info 2 /OUTPUT 1 "mem_axi_awvalid";
    .port_info 3 /INPUT 1 "mem_axi_awready";
    .port_info 4 /OUTPUT 32 "mem_axi_awaddr";
    .port_info 5 /OUTPUT 3 "mem_axi_awprot";
    .port_info 6 /OUTPUT 1 "mem_axi_wvalid";
    .port_info 7 /INPUT 1 "mem_axi_wready";
    .port_info 8 /OUTPUT 32 "mem_axi_wdata";
    .port_info 9 /OUTPUT 4 "mem_axi_wstrb";
    .port_info 10 /INPUT 1 "mem_axi_bvalid";
    .port_info 11 /OUTPUT 1 "mem_axi_bready";
    .port_info 12 /OUTPUT 1 "mem_axi_arvalid";
    .port_info 13 /INPUT 1 "mem_axi_arready";
    .port_info 14 /OUTPUT 32 "mem_axi_araddr";
    .port_info 15 /OUTPUT 3 "mem_axi_arprot";
    .port_info 16 /INPUT 1 "mem_axi_rvalid";
    .port_info 17 /OUTPUT 1 "mem_axi_rready";
    .port_info 18 /INPUT 32 "mem_axi_rdata";
    .port_info 19 /INPUT 1 "mem_valid";
    .port_info 20 /INPUT 1 "mem_instr";
    .port_info 21 /OUTPUT 1 "mem_ready";
    .port_info 22 /INPUT 32 "mem_addr";
    .port_info 23 /INPUT 32 "mem_wdata";
    .port_info 24 /INPUT 4 "mem_wstrb";
    .port_info 25 /OUTPUT 32 "mem_rdata";
L_0x5555826c7890 .functor AND 1, v0x555582883860_0, L_0x5555828a7aa0, C4<1>, C4<1>;
L_0x5555826f30f0 .functor AND 1, L_0x5555826c7890, L_0x5555828a7b90, C4<1>, C4<1>;
L_0x5555826f2f00 .functor BUFZ 32, v0x555582882410_0, C4<00000000000000000000000000000000>, C4<00000000000000000000000000000000>, C4<00000000000000000000000000000000>;
L_0x555582711c60 .functor AND 1, v0x555582883860_0, L_0x5555828a7d10, C4<1>, C4<1>;
L_0x5555827116b0 .functor AND 1, L_0x555582711c60, L_0x5555828a7e40, C4<1>, C4<1>;
L_0x5555828a7f70 .functor BUFZ 32, v0x555582882410_0, C4<00000000000000000000000000000000>, C4<00000000000000000000000000000000>, C4<00000000000000000000000000000000>;
L_0x5555828a8350 .functor AND 1, v0x555582883860_0, L_0x5555828a8270, C4<1>, C4<1>;
L_0x5555828a8460 .functor AND 1, L_0x5555828a8350, L_0x5555828a83c0, C4<1>, C4<1>;
L_0x5555828a85b0 .functor BUFZ 32, v0x555582883930_0, C4<00000000000000000000000000000000>, C4<00000000000000000000000000000000>, C4<00000000000000000000000000000000>;
L_0x5555828a86b0 .functor BUFZ 4, v0x555582883ac0_0, C4<0000>, C4<0000>, C4<0000>;
L_0x5555828a8810 .functor AND 1, v0x555582868280_0, L_0x5555828a8cb0, C4<1>, C4<1>;
L_0x5555828a89a0 .functor AND 1, v0x5555828685c0_0, L_0x5555828a8b30, C4<1>, C4<1>;
L_0x5555828a8ba0 .functor OR 1, L_0x5555828a8810, L_0x5555828a89a0, C4<0>, C4<0>;
L_0x5555828a8cb0 .functor AND 1, v0x555582883860_0, L_0x5555828a8c10, C4<1>, C4<1>;
L_0x5555828a8b30 .functor AND 1, v0x555582883860_0, L_0x5555828a8da0, C4<1>, C4<1>;
L_0x5555828a8f50 .functor BUFZ 32, v0x555582868340_0, C4<00000000000000000000000000000000>, C4<00000000000000000000000000000000>, C4<00000000000000000000000000000000>;
v0x555582872150_0 .net *"_ivl_1", 0 0, L_0x5555828a7aa0;  1 drivers
v0x555582872230_0 .net *"_ivl_13", 0 0, L_0x5555828a7d10;  1 drivers
v0x5555828722f0_0 .net *"_ivl_15", 0 0, L_0x555582711c60;  1 drivers
v0x5555828723c0_0 .net *"_ivl_17", 0 0, L_0x5555828a7e40;  1 drivers
L_0x7f5fca4d04e0 .functor BUFT 1, C4<100>, C4<0>, C4<0>, C4<0>;
v0x555582872480_0 .net/2u *"_ivl_22", 2 0, L_0x7f5fca4d04e0;  1 drivers
L_0x7f5fca4d0528 .functor BUFT 1, C4<000>, C4<0>, C4<0>, C4<0>;
v0x5555828725b0_0 .net/2u *"_ivl_24", 2 0, L_0x7f5fca4d0528;  1 drivers
v0x555582872690_0 .net *"_ivl_29", 0 0, L_0x5555828a8270;  1 drivers
v0x555582872750_0 .net *"_ivl_3", 0 0, L_0x5555826c7890;  1 drivers
v0x555582872810_0 .net *"_ivl_31", 0 0, L_0x5555828a8350;  1 drivers
v0x5555828728d0_0 .net *"_ivl_33", 0 0, L_0x5555828a83c0;  1 drivers
v0x555582872990_0 .net *"_ivl_41", 0 0, L_0x5555828a8810;  1 drivers
v0x555582872a50_0 .net *"_ivl_43", 0 0, L_0x5555828a89a0;  1 drivers
v0x555582872b10_0 .net *"_ivl_47", 0 0, L_0x5555828a8c10;  1 drivers
v0x555582872bd0_0 .net *"_ivl_5", 0 0, L_0x5555828a7b90;  1 drivers
v0x555582872c90_0 .net *"_ivl_51", 0 0, L_0x5555828a8da0;  1 drivers
v0x555582872d50_0 .var "ack_arvalid", 0 0;
v0x555582872e10_0 .var "ack_awvalid", 0 0;
v0x555582872ed0_0 .var "ack_wvalid", 0 0;
v0x555582872f90_0 .net "clk", 0 0, o0x7f5fca953018;  alias, 0 drivers
v0x555582873030_0 .net "mem_addr", 31 0, v0x555582882410_0;  alias, 1 drivers
v0x555582873110_0 .net "mem_axi_araddr", 31 0, L_0x5555828a7f70;  alias, 1 drivers
v0x5555828731d0_0 .net "mem_axi_arprot", 2 0, L_0x5555828a8140;  alias, 1 drivers
v0x555582873290_0 .net "mem_axi_arready", 0 0, v0x555582867d60_0;  alias, 1 drivers
v0x555582873360_0 .net "mem_axi_arvalid", 0 0, L_0x5555827116b0;  alias, 1 drivers
v0x555582873430_0 .net "mem_axi_awaddr", 31 0, L_0x5555826f2f00;  alias, 1 drivers
v0x555582873500_0 .net "mem_axi_awprot", 2 0, L_0x7f5fca4d0498;  alias, 1 drivers
v0x5555828735d0_0 .net "mem_axi_awready", 0 0, v0x555582867fe0_0;  alias, 1 drivers
v0x5555828736a0_0 .net "mem_axi_awvalid", 0 0, L_0x5555826f30f0;  alias, 1 drivers
v0x555582873770_0 .net "mem_axi_bready", 0 0, L_0x5555828a8cb0;  alias, 1 drivers
v0x555582873840_0 .net "mem_axi_bvalid", 0 0, v0x555582868280_0;  alias, 1 drivers
v0x555582873910_0 .net "mem_axi_rdata", 31 0, v0x555582868340_0;  alias, 1 drivers
v0x5555828739e0_0 .net "mem_axi_rready", 0 0, L_0x5555828a8b30;  alias, 1 drivers
v0x555582873ab0_0 .net "mem_axi_rvalid", 0 0, v0x5555828685c0_0;  alias, 1 drivers
v0x555582873d90_0 .net "mem_axi_wdata", 31 0, L_0x5555828a85b0;  alias, 1 drivers
v0x555582873e60_0 .net "mem_axi_wready", 0 0, v0x555582868760_0;  alias, 1 drivers
v0x555582873f30_0 .net "mem_axi_wstrb", 3 0, L_0x5555828a86b0;  alias, 1 drivers
v0x555582874000_0 .net "mem_axi_wvalid", 0 0, L_0x5555828a8460;  alias, 1 drivers
v0x5555828740d0_0 .net "mem_instr", 0 0, v0x5555828829f0_0;  alias, 1 drivers
v0x555582874170_0 .net "mem_rdata", 31 0, L_0x5555828a8f50;  alias, 1 drivers
v0x555582874210_0 .net "mem_ready", 0 0, L_0x5555828a8ba0;  alias, 1 drivers
v0x5555828742b0_0 .net "mem_valid", 0 0, v0x555582883860_0;  alias, 1 drivers
v0x555582874350_0 .net "mem_wdata", 31 0, v0x555582883930_0;  alias, 1 drivers
v0x5555828743f0_0 .net "mem_wstrb", 3 0, v0x555582883ac0_0;  alias, 1 drivers
v0x555582874490_0 .net "resetn", 0 0, o0x7f5fca953b88;  alias, 0 drivers
v0x555582874530_0 .var "xfer_done", 0 0;
L_0x5555828a7aa0 .reduce/or v0x555582883ac0_0;
L_0x5555828a7b90 .reduce/nor v0x555582872e10_0;
L_0x5555828a7d10 .reduce/nor v0x555582883ac0_0;
L_0x5555828a7e40 .reduce/nor v0x555582872d50_0;
L_0x5555828a8140 .functor MUXZ 3, L_0x7f5fca4d0528, L_0x7f5fca4d04e0, v0x5555828829f0_0, C4<>;
L_0x5555828a8270 .reduce/or v0x555582883ac0_0;
L_0x5555828a83c0 .reduce/nor v0x555582872ed0_0;
L_0x5555828a8c10 .reduce/or v0x555582883ac0_0;
L_0x5555828a8da0 .reduce/nor v0x555582883ac0_0;
S_0x5555828748f0 .scope module, "picorv32_core" "picorv32" 8 160, 10 62 0, S_0x5555828708c0;
 .timescale -9 -12;
    .port_info 0 /INPUT 1 "clk";
    .port_info 1 /INPUT 1 "resetn";
    .port_info 2 /OUTPUT 1 "trap";
    .port_info 3 /OUTPUT 1 "mem_valid";
    .port_info 4 /OUTPUT 1 "mem_instr";
    .port_info 5 /INPUT 1 "mem_ready";
    .port_info 6 /OUTPUT 32 "mem_addr";
    .port_info 7 /OUTPUT 32 "mem_wdata";
    .port_info 8 /OUTPUT 4 "mem_wstrb";
    .port_info 9 /INPUT 32 "mem_rdata";
    .port_info 10 /OUTPUT 1 "mem_la_read";
    .port_info 11 /OUTPUT 1 "mem_la_write";
    .port_info 12 /OUTPUT 32 "mem_la_addr";
    .port_info 13 /OUTPUT 32 "mem_la_wdata";
    .port_info 14 /OUTPUT 4 "mem_la_wstrb";
    .port_info 15 /OUTPUT 1 "pcpi_valid";
    .port_info 16 /OUTPUT 32 "pcpi_insn";
    .port_info 17 /OUTPUT 32 "pcpi_rs1";
    .port_info 18 /OUTPUT 32 "pcpi_rs2";
    .port_info 19 /INPUT 1 "pcpi_wr";
    .port_info 20 /INPUT 32 "pcpi_rd";
    .port_info 21 /INPUT 1 "pcpi_wait";
    .port_info 22 /INPUT 1 "pcpi_ready";
    .port_info 23 /INPUT 32 "irq";
    .port_info 24 /OUTPUT 32 "eoi";
    .port_info 25 /OUTPUT 1 "trace_valid";
    .port_info 26 /OUTPUT 36 "trace_data";
P_0x555582874aa0 .param/l "BARREL_SHIFTER" 0 10 68, C4<0>;
P_0x555582874ae0 .param/l "CATCH_ILLINSN" 0 10 73, C4<0>;
P_0x555582874b20 .param/l "CATCH_MISALIGN" 0 10 72, C4<0>;
P_0x555582874b60 .param/l "COMPRESSED_ISA" 0 10 71, C4<0>;
P_0x555582874ba0 .param/l "ENABLE_COUNTERS" 0 10 63, C4<1>;
P_0x555582874be0 .param/l "ENABLE_COUNTERS64" 0 10 64, C4<0>;
P_0x555582874c20 .param/l "ENABLE_DIV" 0 10 78, C4<0>;
P_0x555582874c60 .param/l "ENABLE_FAST_MUL" 0 10 77, C4<0>;
P_0x555582874ca0 .param/l "ENABLE_IRQ" 0 10 79, C4<0>;
P_0x555582874ce0 .param/l "ENABLE_IRQ_QREGS" 0 10 80, C4<0>;
P_0x555582874d20 .param/l "ENABLE_IRQ_TIMER" 0 10 81, C4<0>;
P_0x555582874d60 .param/l "ENABLE_MUL" 0 10 76, C4<0>;
P_0x555582874da0 .param/l "ENABLE_PCPI" 0 10 74, C4<0>;
P_0x555582874de0 .param/l "ENABLE_REGS_16_31" 0 10 65, C4<1>;
P_0x555582874e20 .param/l "ENABLE_REGS_DUALPORT" 0 10 66, C4<1>;
P_0x555582874e60 .param/l "ENABLE_TRACE" 0 10 82, C4<0>;
P_0x555582874ea0 .param/l "LATCHED_IRQ" 0 10 85, C4<11111111111111111111111111111111>;
P_0x555582874ee0 .param/l "LATCHED_MEM_RDATA" 0 10 75, C4<0>;
P_0x555582874f20 .param/l "MASKED_IRQ" 0 10 84, C4<00000000000000000000000000000000>;
P_0x555582874f60 .param/l "PROGADDR_IRQ" 0 10 87, C4<00000000000000000000000000010000>;
P_0x555582874fa0 .param/l "PROGADDR_RESET" 0 10 86, C4<00000000000000000000000000000000>;
P_0x555582874fe0 .param/l "REGS_INIT_ZERO" 0 10 83, C4<0>;
P_0x555582875020 .param/l "STACKADDR" 0 10 88, C4<00000000000000101111111111111100>;
P_0x555582875060 .param/l "TRACE_ADDR" 1 10 180, C4<001000000000000000000000000000000000>;
P_0x5555828750a0 .param/l "TRACE_BRANCH" 1 10 179, C4<000100000000000000000000000000000000>;
P_0x5555828750e0 .param/l "TRACE_IRQ" 1 10 181, C4<100000000000000000000000000000000000>;
P_0x555582875120 .param/l "TWO_CYCLE_ALU" 0 10 70, C4<0>;
P_0x555582875160 .param/l "TWO_CYCLE_COMPARE" 0 10 69, C4<0>;
P_0x5555828751a0 .param/l "TWO_STAGE_SHIFT" 0 10 67, C4<0>;
P_0x5555828751e0 .param/l "WITH_PCPI" 1 10 177, C4<0>;
P_0x555582875220 .param/l "cpu_state_exec" 1 10 1238, C4<00001000>;
P_0x555582875260 .param/l "cpu_state_fetch" 1 10 1235, C4<01000000>;
P_0x5555828752a0 .param/l "cpu_state_ld_rs1" 1 10 1236, C4<00100000>;
P_0x5555828752e0 .param/l "cpu_state_ld_rs2" 1 10 1237, C4<00010000>;
P_0x555582875320 .param/l "cpu_state_ldmem" 1 10 1241, C4<00000001>;
P_0x555582875360 .param/l "cpu_state_shift" 1 10 1239, C4<00000100>;
P_0x5555828753a0 .param/l "cpu_state_stmem" 1 10 1240, C4<00000010>;
P_0x5555828753e0 .param/l "cpu_state_trap" 1 10 1234, C4<10000000>;
P_0x555582875420 .param/l "irq_buserror" 1 10 171, +C4<00000000000000000000000000000010>;
P_0x555582875460 .param/l "irq_ebreak" 1 10 170, +C4<00000000000000000000000000000001>;
P_0x5555828754a0 .param/l "irq_timer" 1 10 169, +C4<00000000000000000000000000000000>;
P_0x5555828754e0 .param/l "irqregs_offset" 1 10 173, +C4<00000000000000000000000000100000>;
P_0x555582875520 .param/l "regfile_size" 1 10 174, +C4<00000000000000000000000000100000>;
P_0x555582875560 .param/l "regindex_bits" 1 10 175, +C4<00000000000000000000000000000101>;
L_0x5555828a9050 .functor BUFZ 1, v0x555582883860_0, C4<0>, C4<0>, C4<0>;
L_0x5555828a91d0 .functor BUFZ 1, v0x5555828829f0_0, C4<0>, C4<0>, C4<0>;
L_0x5555828a9240 .functor BUFZ 1, L_0x5555828a8ba0, C4<0>, C4<0>, C4<0>;
L_0x5555828a9340 .functor BUFZ 32, v0x555582882410_0, C4<00000000000000000000000000000000>, C4<00000000000000000000000000000000>, C4<00000000000000000000000000000000>;
L_0x5555828a93b0 .functor BUFZ 32, v0x555582883930_0, C4<00000000000000000000000000000000>, C4<00000000000000000000000000000000>, C4<00000000000000000000000000000000>;
L_0x5555828a94b0 .functor BUFZ 4, v0x555582883ac0_0, C4<0000>, C4<0000>, C4<0000>;
L_0x5555828a9560 .functor BUFZ 32, L_0x5555828a8f50, C4<00000000000000000000000000000000>, C4<00000000000000000000000000000000>, C4<00000000000000000000000000000000>;
L_0x5555828a9660 .functor BUFZ 32, v0x55558287eb80_0, C4<00000000000000000000000000000000>, C4<00000000000000000000000000000000>, C4<00000000000000000000000000000000>;
L_0x5555828a96d0 .functor BUFZ 32, v0x55558287ec60_0, C4<00000000000000000000000000000000>, C4<00000000000000000000000000000000>, C4<00000000000000000000000000000000>;
L_0x5555828a9740 .functor AND 1, v0x555582883860_0, L_0x5555828a8ba0, C4<1>, C4<1>;
L_0x7f5fca4d0840 .functor BUFT 1, C4<0>, C4<0>, C4<0>, C4<0>;
L_0x5555828a9810 .functor AND 1, L_0x7f5fca4d0840, v0x5555828826f0_0, C4<1>, C4<1>;
L_0x5555828a9880 .functor OR 1, L_0x5555828a9740, L_0x5555828a9810, C4<0>, C4<0>;
L_0x5555828a9b40 .functor AND 1, L_0x5555828a9880, L_0x5555828a9aa0, C4<1>, C4<1>;
L_0x5555828a9c00 .functor OR 1, v0x5555828826f0_0, v0x555582882630_0, C4<0>, C4<0>;
L_0x5555828a98f0 .functor OR 1, L_0x5555828a9c00, v0x5555828827b0_0, C4<0>, C4<0>;
L_0x5555828a9de0 .functor AND 1, L_0x5555828a9b40, L_0x5555828a98f0, C4<1>, C4<1>;
L_0x5555828aa070 .functor AND 1, L_0x5555828a9f80, v0x5555828826f0_0, C4<1>, C4<1>;
L_0x5555828aa1c0 .functor OR 1, L_0x5555828a9de0, L_0x5555828aa070, C4<0>, C4<0>;
L_0x5555828aa320 .functor AND 1, o0x7f5fca953b88, L_0x5555828aa1c0, C4<1>, C4<1>;
L_0x5555828aa6a0 .functor AND 1, L_0x5555828aa5b0, L_0x5555828a9880, C4<1>, C4<1>;
L_0x5555828aa810 .functor OR 1, L_0x5555828aa3e0, L_0x5555828aa6a0, C4<0>, C4<0>;
L_0x5555828aa920 .functor AND 1, L_0x5555828aa320, L_0x5555828aa810, C4<1>, C4<1>;
L_0x5555828aac80 .functor AND 1, o0x7f5fca953b88, L_0x5555828aabe0, C4<1>, C4<1>;
L_0x5555828aad40 .functor AND 1, L_0x5555828aac80, v0x5555828827b0_0, C4<1>, C4<1>;
L_0x5555828ab070 .functor AND 1, L_0x5555828aaed0, L_0x5555828aafd0, C4<1>, C4<1>;
L_0x5555828ab0e0 .functor OR 1, v0x5555828826f0_0, v0x555582882570_0, C4<0>, C4<0>;
L_0x5555828ab280 .functor OR 1, L_0x5555828ab0e0, v0x555582882630_0, C4<0>, C4<0>;
L_0x5555828ab340 .functor AND 1, L_0x5555828ab070, L_0x5555828ab280, C4<1>, C4<1>;
L_0x7f5fca4d08d0 .functor BUFT 1, C4<0>, C4<0>, C4<0>, C4<0>;
L_0x5555828ab540 .functor OR 1, L_0x5555828ab340, L_0x7f5fca4d08d0, C4<0>, C4<0>;
L_0x5555828ab650 .functor AND 1, o0x7f5fca953b88, L_0x5555828ab540, C4<1>, C4<1>;
L_0x5555828ab810 .functor OR 1, v0x555582882570_0, v0x5555828826f0_0, C4<0>, C4<0>;
L_0x7f5fca4d09a8 .functor BUFT 1, C4<0>, C4<0>, C4<0>, C4<0>;
L_0x5555828ab920 .functor OR 1, L_0x5555828a9880, L_0x7f5fca4d09a8, C4<0>, C4<0>;
L_0x5555828aba30 .functor BUFZ 32, L_0x5555828ac2a0, C4<00000000000000000000000000000000>, C4<00000000000000000000000000000000>, C4<00000000000000000000000000000000>;
L_0x5555828ac710 .functor AND 1, v0x5555828821d0_0, v0x555582881c70_0, C4<1>, C4<1>;
L_0x7f5fca4d0a38 .functor BUFT 1, C4<11111111111111111111111111111110>, C4<0>, C4<0>, C4<0>;
L_0x5555828ac8a0 .functor AND 32, v0x55558287ed40_0, L_0x7f5fca4d0a38, C4<11111111111111111111111111111111>, C4<11111111111111111111111111111111>;
L_0x5555828acc00 .functor AND 1, L_0x5555828aca50, v0x55558287dac0_0, C4<1>, C4<1>;
L_0x7f5fca4d0ac8 .functor BUFT 1, C4<1>, C4<0>, C4<0>, C4<0>;
L_0x5555828acdf0 .functor AND 1, L_0x5555828acc00, L_0x7f5fca4d0ac8, C4<1>, C4<1>;
v0x5555828760f0_0 .net *"_ivl_100", 29 0, L_0x5555828ab990;  1 drivers
L_0x7f5fca4d0918 .functor BUFT 1, C4<00>, C4<0>, C4<0>, C4<0>;
v0x555582877e10_0 .net/2u *"_ivl_102", 1 0, L_0x7f5fca4d0918;  1 drivers
v0x555582877ef0_0 .net *"_ivl_104", 31 0, L_0x5555828abaf0;  1 drivers
v0x555582877fe0_0 .net *"_ivl_107", 29 0, L_0x5555828abcb0;  1 drivers
L_0x7f5fca4d0960 .functor BUFT 1, C4<00>, C4<0>, C4<0>, C4<0>;
v0x5555828780c0_0 .net/2u *"_ivl_108", 1 0, L_0x7f5fca4d0960;  1 drivers
v0x5555828781f0_0 .net *"_ivl_110", 31 0, L_0x5555828abda0;  1 drivers
v0x5555828782d0_0 .net/2u *"_ivl_114", 0 0, L_0x7f5fca4d09a8;  1 drivers
v0x5555828783b0_0 .net *"_ivl_117", 0 0, L_0x5555828ab920;  1 drivers
v0x555582878470_0 .net *"_ivl_124", 3 0, L_0x5555828ac4d0;  1 drivers
v0x555582878550_0 .net *"_ivl_129", 0 0, L_0x5555828ac710;  1 drivers
v0x555582878610_0 .net/2u *"_ivl_130", 31 0, L_0x7f5fca4d0a38;  1 drivers
v0x5555828786f0_0 .net *"_ivl_132", 31 0, L_0x5555828ac8a0;  1 drivers
L_0x7f5fca4d0a80 .functor BUFT 1, C4<01000000>, C4<0>, C4<0>, C4<0>;
v0x5555828787d0_0 .net/2u *"_ivl_136", 7 0, L_0x7f5fca4d0a80;  1 drivers
v0x5555828788b0_0 .net *"_ivl_138", 0 0, L_0x5555828aca50;  1 drivers
v0x555582878970_0 .net *"_ivl_141", 0 0, L_0x5555828acc00;  1 drivers
v0x555582878a30_0 .net/2u *"_ivl_142", 0 0, L_0x7f5fca4d0ac8;  1 drivers
v0x555582878b10_0 .net *"_ivl_25", 0 0, L_0x5555828a9740;  1 drivers
v0x555582878bd0_0 .net *"_ivl_27", 0 0, L_0x5555828a9810;  1 drivers
v0x555582878c90_0 .net *"_ivl_30", 3 0, L_0x5555828a9960;  1 drivers
v0x555582878d70_0 .net *"_ivl_35", 0 0, L_0x5555828a9aa0;  1 drivers
v0x555582878e30_0 .net *"_ivl_37", 0 0, L_0x5555828a9b40;  1 drivers
v0x555582878ef0_0 .net *"_ivl_39", 0 0, L_0x5555828a9c00;  1 drivers
v0x555582878fb0_0 .net *"_ivl_41", 0 0, L_0x5555828a98f0;  1 drivers
v0x555582879070_0 .net *"_ivl_43", 0 0, L_0x5555828a9de0;  1 drivers
v0x555582879130_0 .net *"_ivl_45", 0 0, L_0x5555828a9f80;  1 drivers
v0x5555828791f0_0 .net *"_ivl_47", 0 0, L_0x5555828aa070;  1 drivers
v0x5555828792b0_0 .net *"_ivl_49", 0 0, L_0x5555828aa1c0;  1 drivers
v0x555582879370_0 .net *"_ivl_51", 0 0, L_0x5555828aa320;  1 drivers
v0x555582879430_0 .net *"_ivl_53", 0 0, L_0x5555828aa3e0;  1 drivers
v0x5555828794f0_0 .net *"_ivl_55", 1 0, L_0x5555828aa4d0;  1 drivers
v0x5555828795d0_0 .net *"_ivl_57", 0 0, L_0x5555828aa5b0;  1 drivers
v0x555582879690_0 .net *"_ivl_59", 0 0, L_0x5555828aa6a0;  1 drivers
v0x555582879750_0 .net *"_ivl_61", 0 0, L_0x5555828aa810;  1 drivers
L_0x7f5fca4d0888 .functor BUFT 1, C4<1>, C4<0>, C4<0>, C4<0>;
v0x555582879a20_0 .net/2u *"_ivl_64", 0 0, L_0x7f5fca4d0888;  1 drivers
v0x555582879b00_0 .net *"_ivl_69", 0 0, L_0x5555828aabe0;  1 drivers
v0x555582879bc0_0 .net *"_ivl_71", 0 0, L_0x5555828aac80;  1 drivers
v0x555582879c80_0 .net *"_ivl_75", 0 0, L_0x5555828aaed0;  1 drivers
v0x555582879d40_0 .net *"_ivl_77", 0 0, L_0x5555828aafd0;  1 drivers
v0x555582879e00_0 .net *"_ivl_79", 0 0, L_0x5555828ab070;  1 drivers
v0x555582879ec0_0 .net *"_ivl_81", 0 0, L_0x5555828ab0e0;  1 drivers
v0x555582879f80_0 .net *"_ivl_83", 0 0, L_0x5555828ab280;  1 drivers
v0x55558287a040_0 .net *"_ivl_85", 0 0, L_0x5555828ab340;  1 drivers
v0x55558287a100_0 .net/2u *"_ivl_86", 0 0, L_0x7f5fca4d08d0;  1 drivers
v0x55558287a1e0_0 .net *"_ivl_89", 0 0, L_0x5555828ab540;  1 drivers
v0x55558287a2a0_0 .net *"_ivl_93", 0 0, L_0x5555828ab810;  1 drivers
v0x55558287a360_0 .net *"_ivl_95", 29 0, L_0x5555828ab880;  1 drivers
L_0x7f5fca4d1968 .functor BUFT 1, C4<000000000000000000000000000000>, C4<0>, C4<0>, C4<0>;
v0x55558287a440_0 .net *"_ivl_96", 29 0, L_0x7f5fca4d1968;  1 drivers
v0x55558287a520_0 .var "alu_add_sub", 31 0;
v0x55558287a600_0 .var "alu_eq", 0 0;
v0x55558287a6c0_0 .var "alu_lts", 0 0;
v0x55558287a780_0 .var "alu_ltu", 0 0;
v0x55558287a840_0 .var "alu_out", 31 0;
v0x55558287a920_0 .var "alu_out_0", 0 0;
v0x55558287a9e0_0 .var "alu_out_0_q", 0 0;
v0x55558287aaa0_0 .var "alu_out_q", 31 0;
v0x55558287ab80_0 .var "alu_shl", 31 0;
v0x55558287ac60_0 .var "alu_shr", 31 0;
v0x55558287ad40_0 .var "alu_wait", 0 0;
v0x55558287ae00_0 .var "alu_wait_2", 0 0;
v0x55558287aec0_0 .var "cached_ascii_instr", 63 0;
v0x55558287afa0_0 .var "cached_insn_imm", 31 0;
v0x55558287b080_0 .var "cached_insn_opcode", 31 0;
v0x55558287b160_0 .var "cached_insn_rd", 4 0;
v0x55558287b240_0 .var "cached_insn_rs1", 4 0;
v0x55558287b320_0 .var "cached_insn_rs2", 4 0;
v0x55558287b400_0 .var "clear_prefetched_high_word", 0 0;
v0x55558287b4c0_0 .var "clear_prefetched_high_word_q", 0 0;
v0x55558287b580_0 .net "clk", 0 0, o0x7f5fca953018;  alias, 0 drivers
v0x55558287b620_0 .var "compressed_instr", 0 0;
v0x55558287b6e0_0 .var "count_cycle", 63 0;
v0x55558287b7c0_0 .var "count_instr", 63 0;
v0x55558287b8a0_0 .var "cpu_state", 7 0;
v0x55558287b980 .array "cpuregs", 31 0, 31 0;
v0x55558287be40_0 .var "cpuregs_rs1", 31 0;
v0x55558287bf20_0 .var "cpuregs_rs2", 31 0;
v0x55558287c000_0 .var "cpuregs_wrdata", 31 0;
v0x55558287c0e0_0 .var "cpuregs_write", 0 0;
v0x55558287c1a0_0 .var "current_pc", 31 0;
v0x55558287c280_0 .var "dbg_ascii_instr", 63 0;
v0x55558287c360_0 .var "dbg_ascii_state", 127 0;
v0x55558287c440_0 .var "dbg_insn_addr", 31 0;
v0x55558287c520_0 .var "dbg_insn_imm", 31 0;
v0x55558287c600_0 .var "dbg_insn_opcode", 31 0;
v0x55558287c6e0_0 .var "dbg_insn_rd", 4 0;
v0x55558287c7c0_0 .var "dbg_insn_rs1", 4 0;
v0x55558287c8a0_0 .var "dbg_insn_rs2", 4 0;
v0x55558287c980_0 .net "dbg_mem_addr", 31 0, L_0x5555828a9340;  1 drivers
v0x55558287ca60_0 .net "dbg_mem_instr", 0 0, L_0x5555828a91d0;  1 drivers
v0x55558287cb20_0 .net "dbg_mem_rdata", 31 0, L_0x5555828a9560;  1 drivers
v0x55558287cc00_0 .net "dbg_mem_ready", 0 0, L_0x5555828a9240;  1 drivers
v0x55558287ccc0_0 .net "dbg_mem_valid", 0 0, L_0x5555828a9050;  1 drivers
v0x55558287cd80_0 .net "dbg_mem_wdata", 31 0, L_0x5555828a93b0;  1 drivers
v0x55558287ce60_0 .net "dbg_mem_wstrb", 3 0, L_0x5555828a94b0;  1 drivers
v0x55558287cf40_0 .var "dbg_next", 0 0;
v0x55558287d000_0 .var "dbg_rs1val", 31 0;
v0x55558287d0e0_0 .var "dbg_rs1val_valid", 0 0;
v0x55558287d1a0_0 .var "dbg_rs2val", 31 0;
v0x55558287d280_0 .var "dbg_rs2val_valid", 0 0;
v0x55558287d340_0 .var "dbg_valid_insn", 0 0;
v0x55558287d400_0 .var "decoded_imm", 31 0;
v0x55558287d4e0_0 .var "decoded_imm_j", 31 0;
v0x55558287d5c0_0 .var "decoded_rd", 4 0;
v0x55558287d6a0_0 .var "decoded_rs", 4 0;
v0x55558287d780_0 .var "decoded_rs1", 4 0;
v0x55558287d860_0 .var "decoded_rs2", 4 0;
v0x55558287d940_0 .var "decoder_pseudo_trigger", 0 0;
v0x55558287da00_0 .var "decoder_pseudo_trigger_q", 0 0;
v0x55558287dac0_0 .var "decoder_trigger", 0 0;
v0x55558287db80_0 .var "decoder_trigger_q", 0 0;
v0x55558287dc40_0 .var "do_waitirq", 0 0;
v0x55558287dd00_0 .var "eoi", 31 0;
v0x55558287dde0_0 .var "instr_add", 0 0;
v0x55558287dea0_0 .var "instr_addi", 0 0;
v0x55558287df60_0 .var "instr_and", 0 0;
v0x55558287e020_0 .var "instr_andi", 0 0;
v0x55558287e0e0_0 .var "instr_auipc", 0 0;
v0x55558287e1a0_0 .var "instr_beq", 0 0;
v0x55558287e260_0 .var "instr_bge", 0 0;
v0x55558287e320_0 .var "instr_bgeu", 0 0;
v0x55558287e3e0_0 .var "instr_blt", 0 0;
v0x55558287e4a0_0 .var "instr_bltu", 0 0;
v0x55558287e560_0 .var "instr_bne", 0 0;
v0x55558287e620_0 .var "instr_ecall_ebreak", 0 0;
v0x55558287e6e0_0 .var "instr_fence", 0 0;
v0x55558287e7a0_0 .var "instr_getq", 0 0;
v0x55558287e860_0 .var "instr_jal", 0 0;
v0x55558287e920_0 .var "instr_jalr", 0 0;
v0x55558287e9e0_0 .var "instr_lb", 0 0;
v0x55558287eaa0_0 .var "instr_lbu", 0 0;
v0x55558287f370_0 .var "instr_lh", 0 0;
v0x55558287f430_0 .var "instr_lhu", 0 0;
v0x55558287f4f0_0 .var "instr_lui", 0 0;
v0x55558287f5b0_0 .var "instr_lw", 0 0;
v0x55558287f670_0 .var "instr_maskirq", 0 0;
v0x55558287f730_0 .var "instr_or", 0 0;
v0x55558287f7f0_0 .var "instr_ori", 0 0;
v0x55558287f8b0_0 .var "instr_rdcycle", 0 0;
v0x55558287f970_0 .var "instr_rdcycleh", 0 0;
v0x55558287fa30_0 .var "instr_rdinstr", 0 0;
v0x55558287faf0_0 .var "instr_rdinstrh", 0 0;
v0x55558287fbb0_0 .var "instr_retirq", 0 0;
v0x55558287fc70_0 .var "instr_sb", 0 0;
v0x55558287fd30_0 .var "instr_setq", 0 0;
v0x55558287fdf0_0 .var "instr_sh", 0 0;
v0x55558287feb0_0 .var "instr_sll", 0 0;
v0x55558287ff70_0 .var "instr_slli", 0 0;
v0x555582880030_0 .var "instr_slt", 0 0;
v0x5555828800f0_0 .var "instr_slti", 0 0;
v0x5555828801b0_0 .var "instr_sltiu", 0 0;
v0x555582880270_0 .var "instr_sltu", 0 0;
v0x555582880330_0 .var "instr_sra", 0 0;
v0x5555828803f0_0 .var "instr_srai", 0 0;
v0x5555828804b0_0 .var "instr_srl", 0 0;
v0x555582880570_0 .var "instr_srli", 0 0;
v0x555582880630_0 .var "instr_sub", 0 0;
v0x5555828806f0_0 .var "instr_sw", 0 0;
v0x5555828807b0_0 .var "instr_timer", 0 0;
L_0x7f5fca4d09f0 .functor BUFT 1, C4<0>, C4<0>, C4<0>, C4<0>;
v0x555582880870_0 .net "instr_trap", 0 0, L_0x7f5fca4d09f0;  1 drivers
v0x555582880930_0 .var "instr_waitirq", 0 0;
v0x5555828809f0_0 .var "instr_xor", 0 0;
v0x555582880ab0_0 .var "instr_xori", 0 0;
v0x555582880b70_0 .net "irq", 31 0, L_0x7f5fca4d0018;  alias, 1 drivers
v0x555582880c50_0 .var "irq_active", 0 0;
v0x555582880d10_0 .var "irq_delay", 0 0;
v0x555582880dd0_0 .var "irq_mask", 31 0;
v0x555582880eb0_0 .var "irq_pending", 31 0;
v0x555582880f90_0 .var "irq_state", 1 0;
v0x555582881070_0 .var "is_alu_reg_imm", 0 0;
v0x555582881130_0 .var "is_alu_reg_reg", 0 0;
v0x5555828811f0_0 .var "is_beq_bne_blt_bge_bltu_bgeu", 0 0;
v0x5555828812b0_0 .var "is_compare", 0 0;
v0x555582881370_0 .var "is_jalr_addi_slti_sltiu_xori_ori_andi", 0 0;
v0x555582881430_0 .var "is_lb_lh_lw_lbu_lhu", 0 0;
v0x5555828814f0_0 .var "is_lbu_lhu_lw", 0 0;
v0x5555828815b0_0 .var "is_lui_auipc_jal", 0 0;
v0x555582881670_0 .var "is_lui_auipc_jal_jalr_addi_add_sub", 0 0;
v0x555582881730_0 .net "is_rdcycle_rdcycleh_rdinstr_rdinstrh", 0 0, L_0x5555828ac570;  1 drivers
v0x5555828817f0_0 .var "is_sb_sh_sw", 0 0;
v0x5555828818b0_0 .var "is_sll_srl_sra", 0 0;
v0x555582881970_0 .var "is_slli_srli_srai", 0 0;
v0x555582881a30_0 .var "is_slti_blt_slt", 0 0;
v0x555582881af0_0 .var "is_sltiu_bltu_sltu", 0 0;
v0x555582881bb0_0 .var "last_mem_valid", 0 0;
v0x555582881c70_0 .var "latched_branch", 0 0;
v0x555582881d30_0 .var "latched_compr", 0 0;
v0x555582881df0_0 .var "latched_is_lb", 0 0;
v0x555582881eb0_0 .var "latched_is_lh", 0 0;
v0x555582881f70_0 .var "latched_is_lu", 0 0;
v0x555582882030_0 .var "latched_rd", 4 0;
v0x555582882110_0 .var "latched_stalu", 0 0;
v0x5555828821d0_0 .var "latched_store", 0 0;
v0x555582882290_0 .var "latched_trace", 0 0;
v0x555582882350_0 .net "launch_next_insn", 0 0, L_0x5555828acdf0;  1 drivers
v0x555582882410_0 .var "mem_addr", 31 0;
v0x5555828824d0_0 .net "mem_busy", 0 0, L_0x5555828a9a00;  1 drivers
v0x555582882570_0 .var "mem_do_prefetch", 0 0;
v0x555582882630_0 .var "mem_do_rdata", 0 0;
v0x5555828826f0_0 .var "mem_do_rinst", 0 0;
v0x5555828827b0_0 .var "mem_do_wdata", 0 0;
v0x555582882870_0 .net "mem_done", 0 0, L_0x5555828aa280;  1 drivers
v0x555582882930_0 .net "mem_done_raw", 0 0, L_0x5555828aa920;  1 drivers
v0x5555828829f0_0 .var "mem_instr", 0 0;
v0x555582882ac0_0 .net "mem_la_addr", 31 0, L_0x5555828abf70;  1 drivers
L_0x7f5fca4d07b0 .functor BUFT 1, C4<0>, C4<0>, C4<0>, C4<0>;
v0x555582882b80_0 .net "mem_la_firstword", 0 0, L_0x7f5fca4d07b0;  1 drivers
v0x555582882c40_0 .var "mem_la_firstword_reg", 0 0;
L_0x7f5fca4d07f8 .functor BUFT 1, C4<0>, C4<0>, C4<0>, C4<0>;
v0x555582882d00_0 .net "mem_la_firstword_xfer", 0 0, L_0x7f5fca4d07f8;  1 drivers
v0x555582882dc0_0 .net "mem_la_read", 0 0, L_0x5555828ab650;  1 drivers
v0x555582882e80_0 .var "mem_la_secondword", 0 0;
v0x555582882f40_0 .net "mem_la_use_prefetched_high_word", 0 0, L_0x7f5fca4d0840;  1 drivers
v0x555582883000_0 .var "mem_la_wdata", 31 0;
v0x5555828830e0_0 .net "mem_la_write", 0 0, L_0x5555828aad40;  1 drivers
v0x5555828831a0_0 .var "mem_la_wstrb", 3 0;
v0x555582883280_0 .net "mem_rdata", 31 0, L_0x5555828a8f50;  alias, 1 drivers
v0x555582883370_0 .net "mem_rdata_latched", 31 0, L_0x5555828aba30;  1 drivers
v0x555582883430_0 .net "mem_rdata_latched_noshuffle", 31 0, L_0x5555828ac2a0;  1 drivers
v0x555582883510_0 .var "mem_rdata_q", 31 0;
v0x5555828835f0_0 .var "mem_rdata_word", 31 0;
v0x5555828836d0_0 .net "mem_ready", 0 0, L_0x5555828a8ba0;  alias, 1 drivers
v0x5555828837a0_0 .var "mem_state", 1 0;
v0x555582883860_0 .var "mem_valid", 0 0;
v0x555582883930_0 .var "mem_wdata", 31 0;
v0x555582883a00_0 .var "mem_wordsize", 1 0;
v0x555582883ac0_0 .var "mem_wstrb", 3 0;
v0x555582883bb0_0 .net "mem_xfer", 0 0, L_0x5555828a9880;  1 drivers
v0x555582883c50_0 .var "new_ascii_instr", 63 0;
v0x555582883d30_0 .var "next_insn_opcode", 31 0;
v0x555582883e10_0 .var "next_irq_pending", 31 0;
v0x555582883ef0_0 .net "next_pc", 31 0, L_0x5555828ac340;  1 drivers
L_0x7f5fca4d06d8 .functor BUFT 1, C4<xxxxxxxxxxxxxxxxxxxxxxxxxxxxxxxx>, C4<0>, C4<0>, C4<0>;
v0x555582883fd0_0 .net "pcpi_div_rd", 31 0, L_0x7f5fca4d06d8;  1 drivers
L_0x7f5fca4d0768 .functor BUFT 1, C4<0>, C4<0>, C4<0>, C4<0>;
v0x5555828840b0_0 .net "pcpi_div_ready", 0 0, L_0x7f5fca4d0768;  1 drivers
L_0x7f5fca4d0720 .functor BUFT 1, C4<0>, C4<0>, C4<0>, C4<0>;
v0x555582884170_0 .net "pcpi_div_wait", 0 0, L_0x7f5fca4d0720;  1 drivers
L_0x7f5fca4d0690 .functor BUFT 1, C4<0>, C4<0>, C4<0>, C4<0>;
v0x555582884230_0 .net "pcpi_div_wr", 0 0, L_0x7f5fca4d0690;  1 drivers
v0x5555828842f0_0 .var "pcpi_insn", 31 0;
v0x5555828843d0_0 .var "pcpi_int_rd", 31 0;
v0x5555828844b0_0 .var "pcpi_int_ready", 0 0;
v0x555582884570_0 .var "pcpi_int_wait", 0 0;
v0x555582884630_0 .var "pcpi_int_wr", 0 0;
L_0x7f5fca4d05b8 .functor BUFT 1, C4<xxxxxxxxxxxxxxxxxxxxxxxxxxxxxxxx>, C4<0>, C4<0>, C4<0>;
v0x5555828846f0_0 .net "pcpi_mul_rd", 31 0, L_0x7f5fca4d05b8;  1 drivers
L_0x7f5fca4d0648 .functor BUFT 1, C4<0>, C4<0>, C4<0>, C4<0>;
